# GHZ S RI R 50.000000000000
0.001000000000 0.011408139360 -0.000835986810 0.996403659088 -0.056256108911 0.993893278330 -0.060085544996 0.012847822228 0.000321522776
0.007998000000 0.003105701891 -0.019743621397 0.886072943378 -0.426223804083 0.885391976913 -0.426072012070 0.003125026656 -0.020002981772
0.014996000000 -0.012223346124 -0.028369540728 0.657763452469 -0.720616604874 0.656474927877 -0.720905822799 -0.013378121712 -0.028182116015
0.021994000000 -0.030665074043 -0.025851589501 0.339422986320 -0.909666699647 0.338056547235 -0.909216123255 -0.032194064177 -0.024837940680
0.028992000000 -0.043831043700 -0.011217281068 -0.021904528262 -0.967410843856 -0.022585170560 -0.966168963873 -0.045063023321 -0.009575482751
0.035990000000 -0.043944276666 0.008297219421 -0.380364801347 -0.887258791753 -0.379869143729 -0.886075692804 -0.044430236452 0.010075969905
0.042988000000 -0.031239914477 0.022550634908 -0.681989026810 -0.681606202093 -0.680985817369 -0.681044750357 -0.031358078943 0.023863968943
0.049986000000 -0.012635158675 0.024042119088 -0.886083992307 -0.377361863654 -0.885169565250 -0.377730304420 -0.013284869863 0.024441229015
0.056984000000 0.001294189856 0.012312596615 -0.960729842173 -0.019170151087 -0.960113119218 -0.019237570154 -0.000809292936 0.012410640373
0.063982000000 0.002992217089 -0.005783418535 -0.897313789746 0.340406056155 -0.896440122778 0.339806467556 -0.000497151384 -0.004778588782
0.070980000000 -0.008891853878 -0.020013952247 -0.704629946349 0.648959702052 -0.704212411554 0.648152964648 -0.012982564990 -0.016975575889
0.077978000000 -0.027767912815 -0.021729572116 -0.411368818759 0.863745781142 -0.411375056844 0.862394121282 -0.031008220110 -0.016696328515
0.084976000000 -0.042983042722 -0.009452359589 -0.059351830357 0.953150971943 -0.060224332635 0.952272372483 -0.044134621640 -0.003257753927
0.091974000000 -0.045750713415 0.010136790104 0.300208357505 0.904473811126 0.298884751059 0.904316022047 -0.044515870677 0.015911448972
0.098972000000 -0.034321365081 0.026546020121 0.614479986387 0.726822342709 0.613438442183 0.727132845101 -0.031750141951 0.030415314121
0.105970000000 -0.015105704811 0.030379826917 0.840015389906 0.445558908240 0.839658421704 0.445990919613 -0.012600878695 0.032215786899
0.112968000000 0.001335526886 0.019922656346 0.944666460314 0.101162777122 0.944052738321 0.101490173728 0.002121587873 0.020388557287
0.119966000000 0.005467634775 0.001172809129 0.913547886633 -0.258092268622 0.913155527527 -0.257146676023 0.003979854176 0.001844063133
0.126964000000 -0.004951447147 -0.014865363535 0.750185578804 -0.580032658925 0.750300247474 -0.578566176017 -0.007935845189 -0.012248162758
0.133962000000 -0.023954568294 -0.018908543310 0.478464241823 -0.816602577949 0.479198097467 -0.815152757293 -0.026451850361 -0.013890495384
0.140960000000 -0.040430307950 -0.008193303277 0.139826048284 -0.934354653386 0.141221741159 -0.933788936568 -0.041102120118 -0.001897769887
0.147958000000 -0.044889535269 0.011215546872 -0.217146696827 -0.917786074661 -0.215344165665 -0.917760428771 -0.043346363517 0.017059321692
0.154956000000 -0.034837728428 0.028260246457 -0.541779218031 -0.770516710949 -0.540541388826 -0.770909878813 -0.032352780136 0.032047508194
0.161954000000 -0.015725824572 0.033910025246 -0.789157015350 -0.513551270713 -0.788105204347 -0.514490683065 -0.014533651081 0.035122363622
0.168952000000 0.001860065886 0.024958730569 -0.923404541634 -0.182863579574 -0.922774489617 -0.183564261772 -0.000148947014 0.025207916818
0.175950000000 0.008378418413 0.006064640734 -0.924058147903 0.174358974438 -0.923620668649 0.173089460881 0.002648025148 0.008368196468
0.182948000000 -0.000201059838 -0.011827901356 -0.791436304416 0.505213546450 -0.791639587227 0.503805504392 -0.007676082756 -0.005217620588
0.189946000000 -0.018393051560 -0.019144201627 -0.545599186587 0.762047578091 -0.546795193276 0.761132365144 -0.024653532262 -0.007179881302
0.196944000000 -0.037016077367 -0.012137479890 -0.223189880553 0.908557535660 -0.224161375603 0.908389752213 -0.038773373528 0.002949199690
0.203942000000 -0.046144485039 0.005411460832 0.130208193145 0.925448549694 0.129065786310 0.925558849912 -0.042063585935 0.020828523169
0.210940000000 -0.041282038433 0.024543058433 0.463257867841 0.811197329909 0.463419340918 0.810753346131 -0.032921370442 0.036391065653
0.217938000000 -0.024896356137 0.035518042232 0.732309322667 0.579420106016 0.731403722788 0.580020395863 -0.015478143257 0.041926831018
0.224936000000 -0.006503565817 0.032510075489 0.895240519525 0.265051956182 0.894151761395 0.265688823909 0.000928499148 0.034665970569
0.231934000000 0.005033154871 0.018101121336 0.928330870734 -0.087833306800 0.928038193830 -0.086115461311 0.007411029537 0.018846759928
0.238932000000 0.003629986773 0.000012062523 0.827616460625 -0.426670592579 0.828486123901 -0.425063270571 0.001619553996 0.002941458806
0.245930000000 -0.009805222368 -0.011764453897 0.608373988755 -0.703201953444 0.609196647179 -0.702381541088 -0.013437485493 -0.004326002133
0.252928000000 -0.027518482977 -0.010984382684 0.302798923253 -0.878298351224 0.303165271723 -0.877439473479 -0.028917066827 0.000710127218
0.259926000000 -0.040016612055 0.001882566076 -0.045308447958 -0.927065184982 -0.044663718338 -0.926140178424 -0.036964469435 0.015045795362
0.266924000000 -0.040449216462 0.019862312785 -0.386339948052 -0.843056124646 -0.385205525945 -0.842426070928 -0.033131807735 0.031065493111
0.273922000000 -0.028383772440 0.033867545957 -0.671756686588 -0.637971327407 -0.669581114401 -0.638747375821 -0.019804175729 0.040756729307
0.280920000000 -0.009756419088 0.036033976527 -0.860460480392 -0.341849602532 -0.858418389068 -0.343661945177 -0.003298722026 0.038556312692
0.287918000000 0.005510200570 0.024918495419 -0.924684049901 0.003363719848 -0.923839717451 0.000756517081 0.007040956971 0.026257081857
0.294916000000 0.009368492049 0.006399578344 -0.855948697666 0.346615692323 -0.856126120567 0.344384917104 0.005872545215 0.010490545173
0.301914000000 -0.000503541727 -0.009829217705 -0.665273773064 0.639486447533 -0.665780703245 0.636996695144 -0.006004100557 -0.000028305948
0.308912000000 -0.019187738556 -0.015375789211 -0.379448076219 0.840254442700 -0.381129000246 0.837502346625 -0.022169932803 0.000884208548
0.315910000000 -0.037004496892 -0.006585403308 -0.040136354308 0.920119205277 -0.042788405401 0.918198744553 -0.033692051262 0.013439395479
0.322908000000 -0.044259449311 0.012559060614 0.304482587773 0.868145108942 0.301328770530 0.867909660832 -0.033592869288 0.031462592920
0.329906000000 -0.036765595846 0.031563921198 0.605161723914 0.690953816850 0.602179700874 0.692751855408 -0.020841611015 0.045204693314
0.336904000000 -0.018470683854 0.040733268482 0.817531271478 0.415683826118 0.815836045868 0.418324918636 -0.002185845019 0.047014088993
0.343902000000 0.000945793993 0.035340701360 0.912478160519 0.082284346841 0.912122186127 0.085085218272 0.013251860165 0.036010223794
0.350900000000 0.011351581931 0.018281725875 0.877324576931 -0.262094308371 0.877188196379 -0.259738604893 0.016997072803 0.017373444881
0.357898000000 0.007043888464 -0.001407447753 0.716805458690 -0.569584722333 0.717167697150 -0.566784343770 0.006614246586 0.001941602584
0.364896000000 -0.010036333886 -0.012519648730 0.453051376475 -0.794934922871 0.455081016127 -0.792147482919 -0.011877385480 -0.001894101849
0.371894000000 -0.030667356092 -0.008437784847 0.123826375216 -0.905305572641 0.127102356993 -0.903776803008 -0.028083029198 0.008999842299
0.378892000000 -0.043046560758 0.008502781223 -0.222366703632 -0.884560964627 -0.218095759791 -0.885253410779 -0.032277412374 0.029364287449
0.385890000000 -0.041073216727 0.029362704839 -0.533577501343 -0.737078409467 -0.530851421916 -0.739720582007 -0.021039964340 0.047712093584
0.392888000000 -0.026392499061 0.043565722304 -0.767172038766 -0.486440826165 -0.766201912867 -0.489474262362 0.000400799909 0.054003243627
0.399886000000 -0.006768148908 0.044126948225 -0.892645550331 -0.167587875878 -0.892363162381 -0.170197613219 0.021535842367 0.044347639036
0.406884000000 0.006765197386 0.031859999350 -0.891519545983 0.175627268749 -0.891385160283 0.173544953322 0.030786982582 0.022592547322
0.413882000000 0.007145697133 0.014508015288 -0.762170328013 0.494810638093 -0.762729354286 0.492319130180 0.023204219084 0.000285934628
0.420880000000 -0.005136350226 0.002918784676 -0.522166788505 0.743050594721 -0.524296699906 0.739849030565 0.002606773078 -0.011230144875
0.427878000000 -0.021915956679 0.004519588731 -0.207587557488 0.882663061620 -0.211356602402 0.880794298192 -0.020008308966 -0.005540628384
0.434876000000 -0.033004723073 0.018078738613 0.134978164561 0.894693466133 0.130135371788 0.895352702200 -0.032961404988 0.013700456822
0.441874000000 -0.031266463784 0.036177256474 0.456208033208 0.779485338250 0.452872834615 0.782122442821 -0.029340993557 0.036066566771
0.448872000000 -0.017447386390 0.048733751534 0.711880710706 0.554551175430 0.709986197664 0.558564250196 -0.012140751123 0.049939702942
0.455870000000 0.001301655239 0.048790409013 0.866868580080 0.251479934482 0.866129674222 0.255233105542 0.009377480629 0.048558213326
0.462868000000 0.015064635451 0.036329901820 0.898924726945 -0.088317689837 0.899345542544 -0.085094343943 0.023768833706 0.033454916238
0.469866000000 0.016639365576 0.018415113848 0.801213032798 -0.416851871792 0.802305758803 -0.413542982804 0.023847842089 0.012616467664
0.476864000000 0.004955784144 0.004662735159 0.587511139770 -0.684863836039 0.590750518921 -0.681970280268 0.009600579633 -0.001565449623
0.483862000000 -0.012822407051 0.002803776857 0.284971837145 -0.855116556758 0.293712462790 -0.852026199982 -0.010663763947 -0.002518709906
0.490860000000 -0.026784112038 0.014350149517 -0.047544603373 -0.898341439989 -0.043672788267 -0.898835487206 -0.025984941643 0.010808035067
0.497858000000 -0.029410098509 0.032981174372 -0.376968769305 -0.815951061595 -0.374453971334 -0.817409766740 -0.028830248642 0.030912658298
0.504856000000 -0.018425106382 0.049189319877 -0.652368963917 -0.617623530146 -0.650405128753 -0.619908191881 -0.017946703785 0.048444877175
0.511854000000 0.000792551838 0.054736191537 -0.835397125494 -0.331095152280 -0.833435916329 -0.333647281446 0.001630544429 0.054556440226
0.518852000000 0.019403453242 0.046558439775 -0.898321061451 0.003465104914 -0.898057799166 -0.000085448779 0.019265791515 0.047072010925
0.525850000000 0.028897291976 0.028507812319 -0.831912790975 0.337126205927 -0.833355095591 0.334529806478 0.027369773212 0.031292932982
0.532848000000 0.025057270431 0.009442044578 -0.646511255668 0.622578446548 -0.649067960881 0.619878996652 0.023115783879 0.015807129036
0.539846000000 0.010775020830 -0.002279919715 -0.368682760204 0.817837022094 -0.371391589226 0.815954105719 0.010997394518 0.008155593843
0.546844000000 -0.006285776849 -0.002211451253 -0.038379776283 0.895788675843 -0.041890020524 0.894009369751 -0.001629997066 0.011569690110
0.553842000000 -0.017983058742 0.008410009332 0.297357156338 0.845148723847 0.293024080068 0.844856488178 -0.007295298774 0.022384676716
0.560840000000 -0.019451901713 0.023429740293 0.590245948526 0.673158770120 0.585129316291 0.675268874342 -0.002742439393 0.034505923242
0.567838000000 -0.010053030303 0.034802009450 0.797380525530 0.404129338847 0.793920452655 0.409324157483 0.009235129114 0.039325560630
0.574836000000 0.004315861524 0.035902944229 0.889655186830 0.078407663505 0.888642453762 0.084412500254 0.021839679307 0.034114908488
0.581834000000 0.015247805532 0.026792308944 0.853907918377 -0.257339560716 0.855447312332 -0.252576150350 0.027393529540 0.021396258404
0.588832000000 0.016770440959 0.012225770835 0.696909247536 -0.555657849926 0.699150098231 -0.551681522994 0.022939910306 0.007834483492
0.595830000000 0.007850987625 0.000022070635 0.440632596052 -0.774337489458 0.444217603805 -0.770318639133 0.009762185185 0.000797665385
0.602828000000 -0.008165247385 -0.002768780028 0.121273190313 -0.882443995402 0.126877869898 -0.879376260743 -0.005039244842 0.005731834869
0.609826000000 -0.022679819071 0.006475741950 -0.215220827451 -0.864295823955 -0.208456748695 -0.863979977467 -0.012872189581 0.020404679715
0.616824000000 -0.027455573556 0.023794311772 -0.521212318775 -0.720500744840 -0.515195485059 -0.723908399984 -0.007966653782 0.037819824877
0.623822000000 -0.019801305897 0.040308517381 -0.750275119194 -0.473538095285 -0.746971682443 -0.480077584748 0.008148926586 0.047670711742
0.630820000000 -0.003698643772 0.048240097519 -0.870381056406 -0.161350178505 -0.870278898579 -0.167887238725 0.027974448386 0.045018542552
0.637818000000 0.013253808644 0.044298602260 -0.867580559401 0.172637270528 -0.869167494668 0.168407526060 0.042138340812 0.029331129781
0.644816000000 0.022832895834 0.030810759407 -0.742191461226 0.480750163524 -0.743316242012 0.477557119856 0.043004603525 0.007683913389
0.651814000000 0.020451838835 0.015629324376 -0.511649704964 0.722063612586 -0.513383490170 0.718072917443 0.029166112819 -0.009219003918
0.658812000000 0.008637832979 0.008041189322 -0.206559456819 0.861703818147 -0.210320324279 0.857264227408 0.008215576074 -0.012649475457
0.665810000000 -0.004446864142 0.012251199332 0.129846855167 0.875852069397 0.123077209322 0.874511222628 -0.009222937366 -0.001338573069
0.672808000000 -0.010013552179 0.024596279146 0.446388218427 0.762583520489 0.439600801638 0.765172274299 -0.014312164531 0.018321110343
0.679806000000 -0.004920732662 0.037903805662 0.696670320312 0.540811525666 0.692563934625 0.546482371080 -0.004879973434 0.035876157042
0.686804000000 0.008271610212 0.044051261561 0.846165328012 0.244058137056 0.844829009091 0.249683763775 0.014175780213 0.041789842473
0.693802000000 0.022260807137 0.039337978401 0.875781788721 -0.085752994838 0.875813547781 -0.080874074046 0.031749154124 0.032824862555
0.700800000000 0.028673142765 0.026661970286 0.782093206717 -0.404265068077 0.783062511442 -0.399744408541 0.038517911065 0.013936855384
0.707798000000 0.024017618352 0.014029381124 0.576618422244 -0.666257708541 0.580083724100 -0.660681096603 0.030224020685 -0.004369462876
0.714796000000 0.011245240171 0.009764263430 0.287265716740 -0.833119682773 0.292965628111 -0.829588640767 0.010789627985 -0.012384741414
0.721794000000 -0.000417907302 0.016264350720 -0.044465708730 -0.879662848434 -0.037138662703 -0.878859588167 -0.008867784142 -0.005795600571
0.728792000000 -0.003745799434 0.030097949154 -0.367342387673 -0.798522958840 -0.360752332133 -0.801376471674 -0.019897799975 0.012208290473
0.735790000000 0.004434918930 0.043586928237 -0.636349627222 -0.603669879358 -0.631923880991 -0.609661402208 -0.016330035837 0.032712846069
0.742788000000 0.020273567202 0.048486754386 -0.813801762513 -0.324477944480 -0.811867733623 -0.331282483672 -0.000944137806 0.045925000339
0.749786000000 0.036069196176 0.041540233347 -0.876465630757 -0.000699605625 -0.876208083160 -0.006613466408 0.018262034846 0.045803279348
0.756784000000 0.043566337517 0.026211643991 -0.814866576735 0.323749526259 -0.817446157978 0.318330622345 0.032128186878 0.033650531067
0.763782000000 0.039442102924 0.010451334564 -0.636005499632 0.604364881257 -0.640290239692 0.599533594585 0.034506169472 0.016143506780
0.770780000000 0.026444258429 0.001289839108 -0.364497810306 0.797326718583 -0.371321479933 0.794443460146 0.024780602366 0.002324637862
0.777778000000 0.011772694366 0.003771997112 -0.040777208718 0.875759157049 -0.049208140623 0.875276492293 0.008763984024 -0.001310216053
0.784776000000 0.003850023218 0.015586554124 0.286347026715 0.826774104997 0.279611348074 0.829773406678 -0.004943472990 0.006647264236
0.791774000000 0.006838330466 0.029314251255 0.572186907697 0.660601487561 0.567253365371 0.666246601438 -0.009630720646 0.020854590333
0.798772000000 0.018599523716 0.037040382684 0.776403588416 0.401499947541 0.773301445533 0.407804861674 -0.003621645254 0.034696296243
0.805770000000 0.032832592649 0.034847080391 0.870183890583 0.083972685289 0.870005545921 0.091159545341 0.010156603637 0.040904888991
0.812768000000 0.042431952786 0.023598856853 0.838397204686 -0.245036263015 0.840688117395 -0.238253821418 0.023920228933 0.036603790880
0.819766000000 0.042671694623 0.008807627969 0.687201184203 -0.539345787218 0.691278784268 -0.533905641429 0.031477639058 0.024090279122
0.826764000000 0.033470285768 -0.002291537531 0.437434569862 -0.755296832306 0.442758351303 -0.752042805899 0.029541153394 0.010471621975
0.833762000000 0.020071036931 -0.004243618255 0.124621324670 -0.863447789247 0.131729190185 -0.861396259588 0.019341860270 0.001537646346
0.840760000000 0.009530829936 0.002908976330 -0.205354266069 -0.847576310139 -0.197513509865 -0.847688767078 0.006022627231 0.002146462440
0.847758000000 0.006862186035 0.015279177299 -0.505562619054 -0.710219074861 -0.498525491493 -0.713288624954 -0.003262757947 0.011399033022
0.854756000000 0.013519935271 0.026285347330 -0.732572376289 -0.471146079856 -0.727724297316 -0.477108786772 -0.003637812585 0.025503889357
0.861754000000 0.027268548114 0.030377778835 -0.854473231310 -0.164763358989 -0.852195916294 -0.172513498550 0.005853674814 0.035969555137
0.868752000000 0.040891499841 0.024127467256 -0.853788030561 0.164859160782 -0.854112739467 0.157015382210 0.020535362628 0.038513248324
0.875750000000 0.048073389396 0.010536059912 -0.729605742346 0.471093115839 -0.731641870252 0.462990263115 0.032977958000 0.031271458391
0.882748000000 0.045718713983 -0.005713610181 -0.503748343091 0.706362683910 -0.508873496112 0.701023533025 0.038945356540 0.018248872182
0.889746000000 0.033787349108 -0.016997508043 -0.205565486813 0.841520234245 -0.213293236826 0.837623763669 0.035585212466 0.005422703735
0.896744000000 0.017318235145 -0.018320982570 0.121064602242 0.857453356886 0.111323879451 0.856709012279 0.025316931997 -0.001217918046
0.903742000000 0.004389739205 -0.008151072726 0.430199603275 0.751197041716 0.420083275870 0.754901954773 0.014094973638 0.002045006222
0.910740000000 0.001773519330 0.008204484584 0.678358660292 0.537721504475 0.670961606849 0.545591375173 0.010693279551 0.012920969425
0.917738000000 0.010119761408 0.021757686897 0.829818192844 0.245101724037 0.826445670531 0.254894448199 0.016392418808 0.022751264636
0.924736000000 0.025349302694 0.027353034023 0.859283942274 -0.080883608561 0.859612994550 -0.070917237661 0.028552053382 0.026860199636
0.931734000000 0.041071214088 0.021600140479 0.766814173633 -0.392579877777 0.769806645531 -0.384721362229 0.041606834570 0.020127605872
0.938732000000 0.049063034447 0.006970775902 0.567048430277 -0.647261891116 0.571407593183 -0.639833429165 0.047854359670 0.005976678393
0.945730000000 0.045400490314 -0.008631920335 0.287826283560 -0.810126926255 0.296257566384 -0.803745413244 0.043732702352 -0.008855888073
0.952728000000 0.033342873461 -0.016547869682 -0.033304555122 -0.860152337476 -0.021930078843 -0.857255763988 0.031444597167 -0.016776027638
0.959726000000 0.020633683833 -0.013758125579 -0.351276836774 -0.786457414580 -0.340068792279 -0.789850597514 0.016819074463 -0.014763100766
0.966724000000 0.013689219656 -0.003229898681 -0.619335083283 -0.598991280268 -0.610351720016 -0.606508653416 0.007884920523 -0.004111373749
0.973722000000 0.016678069135 0.008406122545 -0.797393378597 -0.324556157356 -0.792965979787 -0.333898672189 0.008929846277 0.009050224151
0.980720000000 0.027501653609 0.014894751121 -0.859616691104 -0.004468219441 -0.858280954559 -0.015229082298 0.018462703054 0.018486708060
0.987718000000 0.040133822894 0.011497321373 -0.799321216433 0.313243359571 -0.800788334501 0.302971433480 0.031309303047 0.019078037183
0.994716000000 0.046513097416 -0.000328194524 -0.626216307015 0.585236284851 -0.631696467556 0.575580020101 0.040767510020 0.010766229972
1.001714000000 0.043803566003 -0.012587450534 -0.365348771731 0.775654593929 -0.374365451418 0.769810180595 0.041599870918 -0.001405690555
