# GHZ S RI R 50.000000000000
0.001000000000 0.000000000000 0.000000000000 0.998063408020 -0.054701677352 0.999925328254 -0.060030136148 0.016887251118 -0.000547969641
0.007998000000 0.000000000000 0.000000000000 0.881360968981 -0.424071401251 0.880293306861 -0.424992982255 0.000250165988 -0.019154237097
0.014996000000 0.000000000000 0.000000000000 0.654420667779 -0.715230064705 0.651873420735 -0.716291656986 -0.013190125147 -0.023872187262
0.021994000000 0.000000000000 0.000000000000 0.338513553267 -0.903320080661 0.336081335267 -0.903035831272 -0.028702021482 -0.021563381064
0.028992000000 0.000000000000 0.000000000000 -0.020226477566 -0.961255649741 -0.021670161965 -0.959776938616 -0.040594188871 -0.008711838671
0.035990000000 0.000000000000 0.000000000000 -0.376462312027 -0.881880837678 -0.376317190076 -0.880380758589 -0.040957472655 0.009302478974
0.042988000000 0.000000000000 0.000000000000 -0.676103880420 -0.678313137504 -0.675323666498 -0.677363190561 -0.029222960587 0.023475352913
0.049986000000 0.000000000000 0.000000000000 -0.879576769105 -0.375954889341 -0.878599711885 -0.375943147172 -0.011005559892 0.025432860713
0.056984000000 0.000000000000 0.000000000000 -0.953884600108 -0.019972564118 -0.952910169713 -0.019556691981 0.003270023859 0.014058720986
0.063982000000 0.000000000000 0.000000000000 -0.891076962609 0.337067987551 -0.890017133343 0.336732246966 0.005807233947 -0.004251702767
0.070980000000 0.000000000000 0.000000000000 -0.700225314941 0.643600805073 -0.699205280707 0.643256249365 -0.005728059626 -0.019110244082
0.077978000000 0.000000000000 0.000000000000 -0.409038619936 0.857302697573 -0.407976220410 0.856221710561 -0.024733210607 -0.021456052360
0.084976000000 0.000000000000 0.000000000000 -0.059403355830 0.946258141955 -0.059781355495 0.945143326034 -0.040215330018 -0.009337747603
0.091974000000 0.000000000000 0.000000000000 0.297060336882 0.898746843128 0.296658043363 0.897333662158 -0.042575541368 0.010494941747
0.098972000000 0.000000000000 0.000000000000 0.610170068809 0.721507787948 0.609450176362 0.721102247482 -0.030119257854 0.026330835599
0.105970000000 0.000000000000 0.000000000000 0.833929990792 0.442638636755 0.833433173767 0.442440615822 -0.009892021437 0.028598071716
0.112968000000 0.000000000000 0.000000000000 0.937617994499 0.100296183126 0.936719349970 0.099903064580 0.006229985114 0.015504126630
0.119966000000 0.000000000000 0.000000000000 0.906782335454 -0.256439491324 0.905732739669 -0.256193821976 0.008078328555 -0.005675036851
0.126964000000 0.000000000000 0.000000000000 0.744213550641 -0.576065880427 0.743582094874 -0.575085051060 -0.005690282263 -0.022365137295
0.133962000000 0.000000000000 0.000000000000 0.474459871627 -0.810654744919 0.474270316738 -0.809466800467 -0.027440389060 -0.025197233084
0.140960000000 0.000000000000 0.000000000000 0.137838265305 -0.927085748877 0.138713808891 -0.926084617395 -0.045407359792 -0.012663624034
0.147958000000 0.000000000000 0.000000000000 -0.216645015786 -0.910527852636 -0.214866348091 -0.909930663119 -0.049809879896 0.008085073709
0.154956000000 0.000000000000 0.000000000000 -0.538823515255 -0.764116502298 -0.537739549501 -0.763902554861 -0.039522727472 0.024746746911
0.161954000000 0.000000000000 0.000000000000 -0.784195946751 -0.508733198048 -0.782993852924 -0.509021398153 -0.021893050485 0.028605733126
0.168952000000 0.000000000000 0.000000000000 -0.916785525643 -0.179270984384 -0.915986915742 -0.179863860508 -0.008159812946 0.018876458001
0.175950000000 0.000000000000 0.000000000000 -0.916527091540 0.175090816738 -0.915732967765 0.174201202001 -0.006893143332 0.002077885039
0.182948000000 0.000000000000 0.000000000000 -0.783836450624 0.502990512730 -0.783477488358 0.501859845577 -0.019095232140 -0.010389603425
0.189946000000 0.000000000000 0.000000000000 -0.539215845293 0.756523806077 -0.539795416255 0.755609004636 -0.037638986694 -0.010703032057
0.196944000000 0.000000000000 0.000000000000 -0.219555258531 0.901202954006 -0.220360755055 0.900650880062 -0.052571175075 0.001669639130
0.203942000000 0.000000000000 0.000000000000 0.130779605251 0.917083097385 0.129691720721 0.917070477116 -0.056275771304 0.021527841265
0.210940000000 0.000000000000 0.000000000000 0.460659818600 0.803276433765 0.460999677709 0.802855961944 -0.047489799341 0.038826690086
0.217938000000 0.000000000000 0.000000000000 0.726986239472 0.573548855735 0.726358410306 0.573855791888 -0.030595789961 0.046480560659
0.224936000000 0.000000000000 0.000000000000 0.887958665597 0.261350869049 0.887289909206 0.261473428710 -0.014867701141 0.042144185449
0.231934000000 0.000000000000 0.000000000000 0.920423708093 -0.088831188282 0.919660460987 -0.087808754368 -0.007583928706 0.029527711888
0.238932000000 0.000000000000 0.000000000000 0.819890295551 -0.425443013408 0.819829011501 -0.424135829665 -0.011376352769 0.017046913092
0.245930000000 0.000000000000 0.000000000000 0.601904040254 -0.699147019863 0.601612093742 -0.698319458617 -0.023258332860 0.012328443354
0.252928000000 0.000000000000 0.000000000000 0.297502775241 -0.872180317179 0.297520382571 -0.870438310280 -0.035427160972 0.018714691614
0.259926000000 0.000000000000 0.000000000000 -0.048392882479 -0.919305908388 -0.047295917416 -0.917643562287 -0.040489515769 0.033429685463
0.266924000000 0.000000000000 0.000000000000 -0.386259517755 -0.834479664630 -0.384268004599 -0.833566626440 -0.034180554405 0.049818933618
0.273922000000 0.000000000000 0.000000000000 -0.668380954070 -0.630010605125 -0.665261713475 -0.630764911939 -0.018577067770 0.059981377850
0.280920000000 0.000000000000 0.000000000000 -0.854327896505 -0.335160539127 -0.852010732141 -0.337900044366 0.001051010447 0.058725661439
0.287918000000 0.000000000000 0.000000000000 -0.916669229049 0.007174904114 -0.915722529601 0.003764593765 0.015577891310 0.046578749759
0.294916000000 0.000000000000 0.000000000000 -0.847131736813 0.347621765116 -0.847495086171 0.344135602621 0.019351886952 0.029408549252
0.301914000000 0.000000000000 0.000000000000 -0.657006679831 0.637337318634 -0.657684213219 0.633986519597 0.011850085283 0.015537695286
0.308912000000 0.000000000000 0.000000000000 -0.372322586769 0.835502472744 -0.374653195920 0.831742775036 -0.001679904245 0.011818105300
0.315910000000 0.000000000000 0.000000000000 -0.034994630987 0.913077721897 -0.038797757477 0.910513012041 -0.012733316087 0.019647522111
0.322908000000 0.000000000000 0.000000000000 0.307304987899 0.859445943261 0.302135531209 0.859382974237 -0.013658757034 0.034310254332
0.329906000000 0.000000000000 0.000000000000 0.603943398439 0.681640650505 0.599900323780 0.684620558860 -0.001934209670 0.046352180574
0.336904000000 0.000000000000 0.000000000000 0.812847147208 0.407110215112 0.810967412884 0.411128582441 0.017003233232 0.047158373499
0.343902000000 0.000000000000 0.000000000000 0.904623581852 0.075842529825 0.904496258310 0.079647151510 0.033477869919 0.034451394360
0.350900000000 0.000000000000 0.000000000000 0.867390502350 -0.265050511635 0.867950759193 -0.261645743962 0.038525941479 0.012998431699
0.357898000000 0.000000000000 0.000000000000 0.707045168177 -0.568256620570 0.708371754396 -0.565083884486 0.028448764973 -0.006594011840
0.364896000000 0.000000000000 0.000000000000 0.444635221467 -0.790955987495 0.447103582841 -0.787510696373 0.008524761006 -0.014585600544
0.371894000000 0.000000000000 0.000000000000 0.117903330833 -0.899109168736 0.121566040728 -0.896650472991 -0.010459525378 -0.007031308581
0.378892000000 0.000000000000 0.000000000000 -0.226400836740 -0.876557883269 -0.220507265502 -0.877062535186 -0.017795822035 0.011495164338
0.385890000000 0.000000000000 0.000000000000 -0.534875439091 -0.728131689582 -0.530810407969 -0.731049389716 -0.008992773665 0.028819292915
0.392888000000 0.000000000000 0.000000000000 -0.765689151137 -0.476800859808 -0.763126780673 -0.481289490780 0.010608495686 0.033887624093
0.399886000000 0.000000000000 0.000000000000 -0.887483577095 -0.158691131480 -0.886708255561 -0.162273598912 0.029642715137 0.022259230565
0.406884000000 0.000000000000 0.000000000000 -0.883201272447 0.182203802529 -0.882489165589 0.179082214857 0.035853721779 -0.001639550245
0.413882000000 0.000000000000 0.000000000000 -0.751383288000 0.497773001583 -0.752031890266 0.493773890769 0.024093538321 -0.025508562985
0.420880000000 0.000000000000 0.000000000000 -0.510919318814 0.741714045495 -0.513787383762 0.736736552456 -0.001251703724 -0.037386810382
0.427878000000 0.000000000000 0.000000000000 -0.197695175622 0.877160388910 -0.203099992847 0.873490621456 -0.028528570884 -0.030890537265
0.434876000000 0.000000000000 0.000000000000 0.142205263142 0.885893602716 0.134749094483 0.885940795384 -0.045805677264 -0.009905215835
0.441874000000 0.000000000000 0.000000000000 0.459877713356 0.769108401659 0.453270499141 0.772610426238 -0.045650393111 0.014658029849
0.448872000000 0.000000000000 0.000000000000 0.712012604119 0.543220836956 0.707713448611 0.549431285077 -0.031812110511 0.030672232572
0.455870000000 0.000000000000 0.000000000000 0.863295481210 0.239931469421 0.861346823791 0.246638505747 -0.013837196136 0.031795541510
0.462868000000 0.000000000000 0.000000000000 0.890912757177 -0.098323869534 0.891246191135 -0.092329763332 -0.003313205337 0.019940097712
0.469866000000 0.000000000000 0.000000000000 0.788905900512 -0.423180000804 0.791550983317 -0.417464700330 -0.007009216132 0.003909654917
0.476864000000 0.000000000000 0.000000000000 0.573261522187 -0.685513519709 0.578283874428 -0.681369584971 -0.023368992067 -0.004116597548
0.483862000000 0.000000000000 0.000000000000 0.271593443293 -0.849612312787 0.282818456928 -0.845620695372 -0.043612880828 0.001599656509
0.490860000000 0.000000000000 0.000000000000 -0.057344757721 -0.888246986803 -0.051104662400 -0.888797701735 -0.057426857944 0.020516303747
0.497858000000 0.000000000000 0.000000000000 -0.381971406774 -0.802976478333 -0.377197430868 -0.805771175949 -0.057957532043 0.045210376480
0.504856000000 0.000000000000 0.000000000000 -0.652227585666 -0.603983176796 -0.648930083298 -0.608438242852 -0.044546803682 0.066605850473
0.511854000000 0.000000000000 0.000000000000 -0.830793036799 -0.318791684258 -0.828956728001 -0.323187261248 -0.022538243996 0.076291639848
0.518852000000 0.000000000000 0.000000000000 -0.890126887250 0.013058790473 -0.889746849706 0.007839932321 -0.001866453688 0.072370618588
0.525850000000 0.000000000000 0.000000000000 -0.821755102814 0.343735857175 -0.822326719594 0.338733845405 0.010240591414 0.059859943803
0.532848000000 0.000000000000 0.000000000000 -0.633812381735 0.624929057670 -0.636489711339 0.620010318358 0.010800527092 0.046835043549
0.539846000000 0.000000000000 0.000000000000 -0.355415692279 0.815678667117 -0.359545125091 0.811033409418 0.003946251359 0.040377483042
0.546844000000 0.000000000000 0.000000000000 -0.025914690402 0.888768331035 -0.032746853486 0.885304943836 -0.003762588207 0.043922748811
0.553842000000 0.000000000000 0.000000000000 0.306954100806 0.833472612975 0.297796288039 0.833763680089 -0.005313430215 0.054273316471
0.560840000000 0.000000000000 0.000000000000 0.594869106996 0.658462274931 0.586002164067 0.663446023401 0.003036933107 0.066009743758
0.567838000000 0.000000000000 0.000000000000 0.796126741296 0.388396044458 0.790587308414 0.397457955547 0.019193036022 0.070627386732
0.574836000000 0.000000000000 0.000000000000 0.881789773767 0.063631255708 0.880813544035 0.074046613184 0.036694343830 0.065099425470
0.581834000000 0.000000000000 0.000000000000 0.841016027815 -0.268585051978 0.843554794859 -0.259094123023 0.048089209080 0.050850108939
0.588832000000 0.000000000000 0.000000000000 0.680702095225 -0.561341621123 0.685440646539 -0.553041132308 0.049873630458 0.033939205877
0.595830000000 0.000000000000 0.000000000000 0.423305966147 -0.773856594261 0.431441888880 -0.766583823438 0.041859942349 0.021407704453
0.602828000000 0.000000000000 0.000000000000 0.105268607857 -0.875941349295 0.116759474229 -0.871199646851 0.030280833185 0.019687677122
0.609826000000 0.000000000000 0.000000000000 -0.227535914997 -0.851615557904 -0.214330055177 -0.853141124527 0.023788013390 0.027846801771
0.616824000000 0.000000000000 0.000000000000 -0.527522586845 -0.703797477626 -0.517405258169 -0.712194610954 0.028363546591 0.039935567614
0.623822000000 0.000000000000 0.000000000000 -0.749450678092 -0.455295208517 -0.745731172618 -0.467363163861 0.044014220586 0.045280298536
0.630820000000 0.000000000000 0.000000000000 -0.862712550817 -0.144427543281 -0.864998248586 -0.155117094523 0.063768407162 0.038202818885
0.637818000000 0.000000000000 0.000000000000 -0.853249450776 0.184372834511 -0.857564149076 0.177679169442 0.077801438352 0.017710252881
0.644816000000 0.000000000000 0.000000000000 -0.725521961953 0.485433631194 -0.728690514651 0.481777964851 0.077661063352 -0.009645427830
0.651814000000 0.000000000000 0.000000000000 -0.495556626949 0.720401148341 -0.498437922623 0.715637556198 0.061358288130 -0.032182347069
0.658812000000 0.000000000000 0.000000000000 -0.192936535625 0.854800697560 -0.198542157610 0.848774536865 0.036771002436 -0.040565990674
0.665810000000 0.000000000000 0.000000000000 0.139977884840 0.865671762983 0.129888030210 0.863422581844 0.014882120487 -0.033367237921
0.672808000000 0.000000000000 0.000000000000 0.453103079615 0.750077396396 0.442885940506 0.753536224812 0.005276722332 -0.016752651322
0.679806000000 0.000000000000 0.000000000000 0.699413262131 0.526558950635 0.692966933871 0.534331286070 0.009968569556 -0.002055465711
0.686804000000 0.000000000000 0.000000000000 0.844142474220 0.228452073051 0.842172039288 0.237232735677 0.023320523687 0.001059395040
0.693802000000 0.000000000000 0.000000000000 0.868298386836 -0.100324655240 0.868140147065 -0.092982218051 0.034001495380 -0.009938911631
0.700800000000 0.000000000000 0.000000000000 0.768712996383 -0.415854827335 0.769776383709 -0.408374949978 0.032591555217 -0.029147141196
0.707798000000 0.000000000000 0.000000000000 0.559433184016 -0.671755275709 0.562866533481 -0.662739212351 0.016131842839 -0.045357379761
0.714796000000 0.000000000000 0.000000000000 0.267998241626 -0.831898478069 0.276487658039 -0.823003860696 -0.010256315297 -0.049130081046
0.721794000000 0.000000000000 0.000000000000 -0.061411176125 -0.870529197657 -0.047804062740 -0.866717848778 -0.035315023532 -0.037263040302
0.728792000000 0.000000000000 0.000000000000 -0.380104885348 -0.784062376498 -0.366060911788 -0.787245897748 -0.049866922642 -0.013624259649
0.735790000000 0.000000000000 0.000000000000 -0.642853943087 -0.585772234781 -0.632124194646 -0.595795868772 -0.048792711933 0.011726884047
0.742788000000 0.000000000000 0.000000000000 -0.813485362009 -0.305359208964 -0.808501719386 -0.318593510518 -0.035741692551 0.029144663080
0.749786000000 0.000000000000 0.000000000000 -0.869400894702 0.018251836409 -0.869970642383 0.005001148870 -0.019473249608 0.033233869569
0.756784000000 0.000000000000 0.000000000000 -0.799806141033 0.339946902310 -0.805625841900 0.328382925606 -0.009100815218 0.026518076053
0.763782000000 0.000000000000 0.000000000000 -0.615441914478 0.613603289206 -0.624336537726 0.604711040746 -0.009855143668 0.015975441037
0.770780000000 0.000000000000 0.000000000000 -0.341055100320 0.797457585453 -0.353813419382 0.792338747915 -0.020449418886 0.010592372821
0.777778000000 0.000000000000 0.000000000000 -0.019475601263 0.866053623743 -0.034240128094 0.865504283871 -0.034820439548 0.015631106855
0.784776000000 0.000000000000 0.000000000000 0.301558671526 0.809301019826 0.288843062776 0.815128956108 -0.044681590213 0.031214515775
0.791774000000 0.000000000000 0.000000000000 0.578434199591 0.639209273632 0.569469455823 0.650082304220 -0.044512680918 0.051291895054
0.798772000000 0.000000000000 0.000000000000 0.774174499940 0.379156974753 0.770107392059 0.392176113798 -0.033425224083 0.069449590770
0.805770000000 0.000000000000 0.000000000000 0.859906822389 0.064892295903 0.860855319883 0.077701431527 -0.014863585354 0.079298917378
0.812768000000 0.000000000000 0.000000000000 0.823038923537 -0.259926894343 0.827426008396 -0.248303513783 0.003914098744 0.078421997111
0.819766000000 0.000000000000 0.000000000000 0.668113629380 -0.547800892771 0.674631570030 -0.538158083262 0.017052786214 0.069205658256
0.826764000000 0.000000000000 0.000000000000 0.415905333924 -0.757623387829 0.425661830755 -0.749277271893 0.021569189238 0.058325025924
0.833762000000 0.000000000000 0.000000000000 0.103228267603 -0.858265599468 0.116577060210 -0.852840740994 0.018727278294 0.051284090701
0.840760000000 0.000000000000 0.000000000000 -0.224194365648 -0.834324191904 -0.208549592728 -0.834454329349 0.013431177359 0.052320121787
0.847758000000 0.000000000000 0.000000000000 -0.518668256310 -0.689634116059 -0.503996127670 -0.696878675912 0.012350566594 0.060646029618
0.854756000000 0.000000000000 0.000000000000 -0.736854534785 -0.445779452512 -0.727456801004 -0.459291079912 0.020147916406 0.071790756761
0.861754000000 0.000000000000 0.000000000000 -0.847987329689 -0.139414754170 -0.845070161875 -0.154418531716 0.036923508474 0.078165969028
0.868752000000 0.000000000000 0.000000000000 -0.836960314536 0.185556217966 -0.839399169068 0.170934368050 0.058392273515 0.075379825791
0.875750000000 0.000000000000 0.000000000000 -0.705944789541 0.482715431558 -0.712040714112 0.469325058524 0.076678129310 0.061715970824
0.882748000000 0.000000000000 0.000000000000 -0.477032785790 0.708956026670 -0.487915828277 0.698180680329 0.087413449992 0.041191284264
0.889746000000 0.000000000000 0.000000000000 -0.180261189919 0.833925434372 -0.196345895084 0.827134230760 0.087034059934 0.020171587764
0.896744000000 0.000000000000 0.000000000000 0.141423549543 0.840845242859 0.121551400295 0.841760648508 0.078337020016 0.005483048912
0.903742000000 0.000000000000 0.000000000000 0.442723592182 0.727865738320 0.424830764337 0.739236835214 0.068004386491 0.001163622738
0.910740000000 0.000000000000 0.000000000000 0.681828762820 0.509674306926 0.671298426936 0.529013233990 0.064605402725 0.004451736954
0.917738000000 0.000000000000 0.000000000000 0.821385941869 0.219728849040 0.822017589263 0.238219362560 0.070295452742 0.006755283921
0.924736000000 0.000000000000 0.000000000000 0.841548270909 -0.100377215051 0.848093515313 -0.087314351704 0.081516450093 0.002062669236
0.931734000000 0.000000000000 0.000000000000 0.743157339485 -0.402902032828 0.750883479915 -0.395435396661 0.091184076667 -0.014269058879
0.938732000000 0.000000000000 0.000000000000 0.542247578585 -0.647045484201 0.548429194258 -0.640574125327 0.091180775412 -0.037255139230
0.945730000000 0.000000000000 0.000000000000 0.266315144919 -0.802645377832 0.275829435793 -0.793671221566 0.078760032209 -0.058593303083
0.952728000000 0.000000000000 0.000000000000 -0.048771076522 -0.845900353400 -0.034468439700 -0.840192488859 0.057204046298 -0.070572075610
0.959726000000 0.000000000000 0.000000000000 -0.360402770664 -0.769562073861 -0.342319943302 -0.772433820023 0.034048204081 -0.070337443918
0.966724000000 0.000000000000 0.000000000000 -0.622826270080 -0.580709618887 -0.608118694841 -0.592094716754 0.017870845715 -0.059713101476
0.973722000000 0.000000000000 0.000000000000 -0.795381739467 -0.305776074519 -0.788326132292 -0.321259292480 0.012046681746 -0.046913528076
0.980720000000 0.000000000000 0.000000000000 -0.852080391128 0.012632511862 -0.850657123409 -0.002867440435 0.014383460622 -0.037830847518
0.987718000000 0.000000000000 0.000000000000 -0.785825260390 0.328107804875 -0.787677417505 0.314300404237 0.018894096280 -0.036762016865
0.994716000000 0.000000000000 0.000000000000 -0.608145927622 0.595544842587 -0.612720246028 0.581930160705 0.019427677637 -0.042825498300
1.001714000000 0.000000000000 0.000000000000 -0.342867376855 0.779061168154 -0.353237995362 0.765797082947 0.011448460641 -0.050633995318
