# GHZ S RI R 50.000000000000
0.001000000000 0.000000000000 0.000000000000 0.982689329732 -0.160725349750 0.975437366232 -0.179745277078 0.037129223535 0.157182693601
0.007998000000 0.000000000000 0.000000000000 0.141212715554 -0.589113876884 0.130195470284 -0.584153677038 0.681369674255 0.381602331642
0.014996000000 0.000000000000 0.000000000000 -0.147052525334 -0.306206763403 -0.150860759184 -0.298329463707 0.915370297876 0.049512492068
0.021994000000 0.000000000000 0.000000000000 -0.153657287917 -0.112122801135 -0.153601791055 -0.108508375691 0.918587406851 -0.243379537913
0.028992000000 0.000000000000 0.000000000000 -0.102752375686 -0.026142723372 -0.103198711100 -0.025187614644 0.830696396992 -0.478867105137
0.035990000000 0.000000000000 0.000000000000 -0.064612079604 0.008713071440 -0.065182943808 0.008872186313 0.705874547479 -0.654631776059
0.042988000000 0.000000000000 0.000000000000 -0.006196496349 -0.005470613756 -0.006471929568 -0.005451299314 0.545400795162 -0.803864472272
0.049986000000 0.000000000000 0.000000000000 0.011395691026 -0.063226358259 0.009423326094 -0.063796249191 0.355604285688 -0.898812795310
0.056984000000 0.000000000000 0.000000000000 -0.030278193548 -0.116103477126 -0.034091816843 -0.114237557448 0.156498467864 -0.933550217865
0.063982000000 0.000000000000 0.000000000000 -0.129229658362 -0.155736873510 -0.133779562597 -0.148340368368 -0.072102309261 -0.914892717717
0.070980000000 0.000000000000 0.000000000000 -0.266374788915 -0.105419743388 -0.264328927151 -0.095042451263 -0.277787677968 -0.827405831646
0.077978000000 0.000000000000 0.000000000000 -0.411673412516 0.226347465460 -0.400045848926 0.231712609321 -0.370760813271 -0.520691501454
0.084976000000 0.000000000000 0.000000000000 -0.164674266848 0.372262299175 -0.155890273042 0.370364044513 -0.333647897596 -0.500148483785
0.091974000000 0.000000000000 0.000000000000 0.086270565615 0.392359314644 0.090336173325 0.385566622749 -0.324730847288 -0.467618427433
0.098972000000 0.000000000000 0.000000000000 0.359229035945 0.229259975180 0.350411443110 0.219349838001 -0.257612967833 -0.508242754547
0.105970000000 0.000000000000 0.000000000000 0.398319629906 -0.021166684206 0.395004084302 0.006690995515 -0.329434152046 -0.528006390332
0.112968000000 0.000000000000 0.000000000000 0.205167232350 -0.151832966157 0.203447418054 -0.150948322880 -0.550004973251 -0.557649920722
0.119966000000 0.000000000000 0.000000000000 0.090615611687 -0.140064420210 0.090061544735 -0.138263221667 -0.715407717544 -0.435472851989
0.126964000000 0.000000000000 0.000000000000 0.089298197778 -0.076599401805 0.088767495847 -0.074784840118 -0.810459464243 -0.222877109020
0.133962000000 0.000000000000 0.000000000000 0.170531974995 -0.136287990510 0.170939899233 -0.132572102492 -0.760775668950 -0.004963900849
0.140960000000 0.000000000000 0.000000000000 0.140980753506 -0.273266989240 0.145227666857 -0.270293847992 -0.669187277712 0.127062572113
0.147958000000 0.000000000000 0.000000000000 -0.131128428422 -0.523448867219 -0.125665556907 -0.525187716857 -0.427997198144 0.083285964635
0.154956000000 0.000000000000 0.000000000000 -0.507521363436 -0.157412395365 -0.505814786418 -0.163371678842 -0.614422811205 -0.103929764003
0.161954000000 0.000000000000 0.000000000000 -0.354394558999 0.158851720040 -0.357762270930 0.156102921235 -0.800282253122 0.066768379674
0.168952000000 0.000000000000 0.000000000000 -0.180208402273 0.235764583796 -0.182479670012 0.236323749693 -0.817057297030 0.269272550622
0.175950000000 0.000000000000 0.000000000000 -0.047131498517 0.233112217178 -0.047978550328 0.232283705369 -0.774050170757 0.447141918190
0.182948000000 0.000000000000 0.000000000000 0.030479300077 0.199358506994 0.029965963092 0.199780918304 -0.681577281700 0.586527027018
0.189946000000 0.000000000000 0.000000000000 0.102080827712 0.148161823970 0.101415423677 0.149100980336 -0.586582870288 0.710987061575
0.196944000000 0.000000000000 0.000000000000 0.130025332574 0.083279394491 0.130463957321 0.084504014113 -0.455768379811 0.812106742607
0.203942000000 0.000000000000 0.000000000000 0.132759883171 0.021481759312 0.133941410018 0.021744101090 -0.310559264586 0.885900596928
0.210940000000 0.000000000000 0.000000000000 0.112822572879 -0.027551313635 0.113174468845 -0.028682563771 -0.156000881456 0.929890346535
0.217938000000 0.000000000000 0.000000000000 0.080457907205 -0.058947553982 0.079253696132 -0.059728671318 0.005409336974 0.943962359653
0.224936000000 0.000000000000 0.000000000000 0.041957048970 -0.071458900672 0.040309714173 -0.070787173061 0.166167219156 0.931960584712
0.231934000000 0.000000000000 0.000000000000 0.011531388655 -0.064768927542 0.011120485487 -0.063015613860 0.324214212977 0.888559245512
0.238932000000 0.000000000000 0.000000000000 -0.007406756336 -0.054049653668 -0.006426450306 -0.052516770151 0.467086532691 0.819100622103
0.245930000000 0.000000000000 0.000000000000 -0.022219151997 -0.036576096387 -0.020461627175 -0.036255099467 0.599213483807 0.732301168135
0.252928000000 0.000000000000 0.000000000000 -0.019478828843 -0.017957137376 -0.018579595806 -0.018419098349 0.718452630949 0.616675364195
0.259926000000 0.000000000000 0.000000000000 -0.009790106771 -0.011666753862 -0.009457295156 -0.012021160508 0.812755038010 0.480388976523
0.266924000000 0.000000000000 0.000000000000 -0.001683956464 -0.016247655423 -0.001352999054 -0.016557257121 0.879242780275 0.329653589802
0.273922000000 0.000000000000 0.000000000000 -0.003256608510 -0.025447189011 -0.003067955883 -0.025832455725 0.916922495387 0.172536337272
0.280920000000 0.000000000000 0.000000000000 -0.010892830414 -0.034953491138 -0.010870479951 -0.035258392928 0.928815850724 0.010603721684
0.287918000000 0.000000000000 0.000000000000 -0.031332253408 -0.039160377733 -0.031188872080 -0.039261272736 0.908748842992 -0.148464831391
0.294916000000 0.000000000000 0.000000000000 -0.052430224346 -0.029497735071 -0.051602198044 -0.029820213990 0.864183621387 -0.299061308273
0.301914000000 0.000000000000 0.000000000000 -0.067547241294 -0.006099838578 -0.067050287681 -0.007600121481 0.796096451823 -0.436974885651
0.308912000000 0.000000000000 0.000000000000 -0.069363868340 0.017360420845 -0.070736501937 0.015264889249 0.710680882097 -0.565377088709
0.315910000000 0.000000000000 0.000000000000 -0.074464016685 0.037281318984 -0.078020587681 0.036465490428 0.598042543157 -0.688020817694
0.322908000000 0.000000000000 0.000000000000 -0.073403572532 0.083903136160 -0.076733130111 0.087320830341 0.445609923149 -0.777575918365
0.329906000000 0.000000000000 0.000000000000 -0.025205676443 0.136869456774 -0.023385761236 0.142195942635 0.283434855654 -0.811731183015
0.336904000000 0.000000000000 0.000000000000 0.067803230104 0.139972571527 0.073647429961 0.140229388106 0.152052109470 -0.801012643547
0.343902000000 0.000000000000 0.000000000000 0.132822467958 0.071123994055 0.135381594765 0.066081495273 0.057642410843 -0.795439994431
0.350900000000 0.000000000000 0.000000000000 0.115115723960 -0.006609173530 0.112586369348 -0.010437677550 -0.038685571631 -0.826977369419
0.357898000000 0.000000000000 0.000000000000 0.090984775734 -0.029169027136 0.087067833227 -0.029939125248 -0.184587167701 -0.831498584917
0.364896000000 0.000000000000 0.000000000000 0.072819306428 -0.047911070106 0.069943509342 -0.045746454886 -0.327576945917 -0.799512997009
0.371894000000 0.000000000000 0.000000000000 0.061052413791 -0.059691545100 0.060281996698 -0.056725708891 -0.468861125096 -0.737375302042
0.378892000000 0.000000000000 0.000000000000 0.047571047989 -0.077532053589 0.048619835944 -0.075254839831 -0.594316798455 -0.645977277445
0.385890000000 0.000000000000 0.000000000000 0.025946277048 -0.096225452620 0.026842012902 -0.094697413352 -0.697952776071 -0.532003372394
0.392888000000 0.000000000000 0.000000000000 -0.003213812548 -0.108518452211 -0.001983778188 -0.107808609223 -0.781426413254 -0.402218525466
0.399886000000 0.000000000000 0.000000000000 -0.041941249436 -0.116756533721 -0.040382028068 -0.115119678834 -0.837209330739 -0.256317429824
0.406884000000 0.000000000000 0.000000000000 -0.092768132945 -0.107323548941 -0.089294777071 -0.105916229945 -0.859658932984 -0.103955400276
0.413882000000 0.000000000000 0.000000000000 -0.141562485601 -0.070793443870 -0.135452262322 -0.071616720854 -0.855055401313 0.041594977658
0.420880000000 0.000000000000 0.000000000000 -0.175233134929 -0.013400221588 -0.170993281012 -0.019947894547 -0.827676652180 0.183926921927
0.427878000000 0.000000000000 0.000000000000 -0.185453140778 0.066180618822 -0.187508594883 0.056879010177 -0.773020923032 0.315208139272
0.434876000000 0.000000000000 0.000000000000 -0.151585856467 0.151279647878 -0.160459163024 0.146351885382 -0.700139998105 0.428266682239
0.441874000000 0.000000000000 0.000000000000 -0.077986870329 0.215233070116 -0.087013806225 0.217843316660 -0.612832445467 0.526542148221
0.448872000000 0.000000000000 0.000000000000 0.018296829917 0.239562608265 0.014495026515 0.245992240813 -0.513831450839 0.608865524683
0.455870000000 0.000000000000 0.000000000000 0.122141087627 0.227462632042 0.122717827647 0.232407220999 -0.395592111243 0.674005596006
0.462868000000 0.000000000000 0.000000000000 0.224846716764 0.168170990661 0.227189369416 0.171077021886 -0.266303289276 0.705994627433
0.469866000000 0.000000000000 0.000000000000 0.297589710692 0.052825628397 0.300627836727 0.054064937700 -0.143720882144 0.701493863442
0.476864000000 0.000000000000 0.000000000000 0.306462383055 -0.095868026445 0.309137471739 -0.094591563276 -0.046082042566 0.670939158102
0.483862000000 0.000000000000 0.000000000000 0.230561280880 -0.237259324573 0.235398152169 -0.236527360086 0.027309357261 0.637809545333
0.490860000000 0.000000000000 0.000000000000 0.103816770454 -0.324770876074 0.105671838602 -0.327351994711 0.086110552486 0.610262320198
0.497858000000 0.000000000000 0.000000000000 -0.069344861701 -0.344592246941 -0.071406602260 -0.346616211825 0.128107270576 0.582869255756
0.504856000000 0.000000000000 0.000000000000 -0.228607060031 -0.263711122795 -0.231227733139 -0.261657937902 0.169849213602 0.577106677155
0.511854000000 0.000000000000 0.000000000000 -0.326453522694 -0.110103278679 -0.324430218481 -0.105536905570 0.218221532390 0.576645431180
0.518852000000 0.000000000000 0.000000000000 -0.304379961460 0.071996130211 -0.297471392044 0.071628669447 0.288726195557 0.595728331889
0.525850000000 0.000000000000 0.000000000000 -0.198829942597 0.174350878569 -0.194002895312 0.167125159052 0.401335885785 0.589601676850
0.532848000000 0.000000000000 0.000000000000 -0.096054658143 0.200534579516 -0.099361668216 0.191779058399 0.520418055613 0.535251417259
0.539846000000 0.000000000000 0.000000000000 -0.018690648968 0.192387459635 -0.027040397383 0.187635883328 0.620810060237 0.446982304060
0.546844000000 0.000000000000 0.000000000000 0.034870558155 0.171544066186 0.026714229316 0.174521628897 0.695383753789 0.331223312325
0.553842000000 0.000000000000 0.000000000000 0.078482148169 0.149460674647 0.074817130556 0.155917624253 0.739428984701 0.203318659489
0.560840000000 0.000000000000 0.000000000000 0.125127384196 0.120919574296 0.125961161983 0.126672787792 0.752847999385 0.077561062469
0.567838000000 0.000000000000 0.000000000000 0.167782228075 0.074013241663 0.170290625099 0.076794971599 0.743269449523 -0.040695074783
0.574836000000 0.000000000000 0.000000000000 0.197841414835 0.000527923069 0.199696462582 0.001804297194 0.715395234767 -0.143305157205
0.581834000000 0.000000000000 0.000000000000 0.182629325533 -0.095384296378 0.184234464109 -0.092806685320 0.688453581994 -0.229590281025
0.588832000000 0.000000000000 0.000000000000 0.111449629192 -0.170162511067 0.115848031531 -0.165904445242 0.666549183802 -0.320054589560
0.595830000000 0.000000000000 0.000000000000 0.011659863940 -0.187154797348 0.020439156464 -0.188319054629 0.637864003708 -0.423155067886
0.602828000000 0.000000000000 0.000000000000 -0.066663296437 -0.148180264565 -0.061929280849 -0.157116684074 0.584987812744 -0.538513171334
0.609826000000 0.000000000000 0.000000000000 -0.102429676624 -0.090733364092 -0.107408450865 -0.099292918977 0.498297914388 -0.649159295330
0.616824000000 0.000000000000 0.000000000000 -0.109654199404 -0.037639462276 -0.118520738490 -0.038088127653 0.386828645297 -0.741083706649
0.623822000000 0.000000000000 0.000000000000 -0.094274464627 0.002841750252 -0.098845685256 0.008350039323 0.253115818941 -0.813624617633
0.630820000000 0.000000000000 0.000000000000 -0.073894236382 0.025414998853 -0.072759073303 0.031152784032 0.104404077650 -0.855512454493
0.637818000000 0.000000000000 0.000000000000 -0.052294167814 0.035410982052 -0.048014529525 0.038117468991 -0.053583564811 -0.869120263342
0.644816000000 0.000000000000 0.000000000000 -0.037784150382 0.034109839968 -0.033604810170 0.033800361194 -0.213486028747 -0.850031574449
0.651814000000 0.000000000000 0.000000000000 -0.034839015885 0.032185958457 -0.031632617661 0.029938891458 -0.367399184181 -0.796724629384
0.658812000000 0.000000000000 0.000000000000 -0.037212034023 0.038866346070 -0.035532126788 0.034986613412 -0.505728965115 -0.714020928510
0.665810000000 0.000000000000 0.000000000000 -0.035019435515 0.055530825041 -0.036063268582 0.051536216108 -0.623065558116 -0.607331207285
0.672808000000 0.000000000000 0.000000000000 -0.020133002513 0.075157408215 -0.022455948655 0.072916814924 -0.716947612452 -0.483467943048
0.679806000000 0.000000000000 0.000000000000 0.006230783494 0.089652455991 0.004310963076 0.088345170072 -0.785944412376 -0.345944165672
0.686804000000 0.000000000000 0.000000000000 0.042577237285 0.091945352226 0.040154276339 0.090107857933 -0.827540386118 -0.201281860417
0.693802000000 0.000000000000 0.000000000000 0.080387791587 0.077988139565 0.075690062957 0.076432984338 -0.842549270376 -0.055735352126
0.700800000000 0.000000000000 0.000000000000 0.113631561762 0.046594360090 0.106387534802 0.048179182182 -0.831662482646 0.087829353337
0.707798000000 0.000000000000 0.000000000000 0.133650540353 0.001116200841 0.127149072720 0.008870142945 -0.797424017785 0.223725773234
0.714796000000 0.000000000000 0.000000000000 0.134555708158 -0.056332760140 0.135107991394 -0.043289448995 -0.741162735466 0.347064737464
0.721794000000 0.000000000000 0.000000000000 0.106828947082 -0.112545261412 0.117811840286 -0.102414443623 -0.669801332822 0.455216769826
0.728792000000 0.000000000000 0.000000000000 0.054966066906 -0.152698729926 0.069967699890 -0.153760664332 -0.586652098693 0.549842020250
0.735790000000 0.000000000000 0.000000000000 -0.010381321920 -0.168536803122 -0.001222198756 -0.179051232657 -0.491778814529 0.631790531141
0.742788000000 0.000000000000 0.000000000000 -0.078682601693 -0.155770679111 -0.079066738384 -0.167227954204 -0.386078459573 0.697628490870
0.749786000000 0.000000000000 0.000000000000 -0.137627014657 -0.115224179400 -0.142913738753 -0.121515611997 -0.272210839083 0.744588124282
0.756784000000 0.000000000000 0.000000000000 -0.174110110455 -0.054030413376 -0.179328328787 -0.055876288941 -0.153626519456 0.773831961257
0.763782000000 0.000000000000 0.000000000000 -0.186846489847 0.014473596936 -0.190266023798 0.014055940945 -0.030742742154 0.783548847424
0.770780000000 0.000000000000 0.000000000000 -0.174870222067 0.087485916697 -0.178412715405 0.087147091333 0.091019042410 0.770424190789
0.777778000000 0.000000000000 0.000000000000 -0.134514302989 0.154978986993 -0.138839945492 0.156058162863 0.204684025284 0.737202165566
0.784776000000 0.000000000000 0.000000000000 -0.068692352597 0.206722908330 -0.070685207939 0.210882109549 0.309856324718 0.684559793585
0.791774000000 0.000000000000 0.000000000000 0.022912483986 0.233636038163 0.024867369463 0.237434719763 0.399781661917 0.614188930772
0.798772000000 0.000000000000 0.000000000000 0.133436180731 0.214867942179 0.136558235920 0.213790739125 0.465894814546 0.533225051696
0.805770000000 0.000000000000 0.000000000000 0.229140289198 0.131443100150 0.227482433843 0.127337669833 0.511524648922 0.458858711278
0.812768000000 0.000000000000 0.000000000000 0.262875153477 0.004044985722 0.255872076999 0.004671325916 0.550562962819 0.396004145106
0.819766000000 0.000000000000 0.000000000000 0.224089804566 -0.116510459750 0.219235378460 -0.108190196350 0.593470919336 0.335322401346
0.826764000000 0.000000000000 0.000000000000 0.134070512884 -0.191141075150 0.138031402690 -0.180736913424 0.642248830679 0.267922236919
0.833762000000 0.000000000000 0.000000000000 0.033759631589 -0.208444950749 0.044463712767 -0.204213843215 0.688935880904 0.185083221106
0.840760000000 0.000000000000 0.000000000000 -0.047221965679 -0.180255763193 -0.038402739670 -0.184227202370 0.728410685755 0.086363667809
0.847758000000 0.000000000000 0.000000000000 -0.095300201633 -0.131715761722 -0.092486697081 -0.138074420486 0.752388413426 -0.028100162170
0.854756000000 0.000000000000 0.000000000000 -0.115642516525 -0.084573220143 -0.116592022153 -0.089024293733 0.752958284365 -0.154899724379
0.861754000000 0.000000000000 0.000000000000 -0.123216859614 -0.046940956511 -0.124483639380 -0.048903110485 0.724631960387 -0.284836743582
0.868752000000 0.000000000000 0.000000000000 -0.127745580854 -0.014788428595 -0.127816721763 -0.016311048162 0.668432292622 -0.407658573251
0.875750000000 0.000000000000 0.000000000000 -0.130990740965 0.019284019134 -0.130769874513 0.015754894753 0.586757613520 -0.518177640472
0.882748000000 0.000000000000 0.000000000000 -0.128318524236 0.060373231392 -0.131371212733 0.055149072394 0.486282914815 -0.608201172650
0.889746000000 0.000000000000 0.000000000000 -0.110065385233 0.107493752947 -0.118770259025 0.105551909976 0.371528245060 -0.674177352627
0.896744000000 0.000000000000 0.000000000000 -0.068460076358 0.152297147351 -0.076847043937 0.159405238563 0.250029453024 -0.713888279779
0.903742000000 0.000000000000 0.000000000000 -0.003768505860 0.176358149641 -0.001813668954 0.188565060090 0.131303125591 -0.732169992008
0.910740000000 0.000000000000 0.000000000000 0.067917829988 0.169019715214 0.079811577450 0.173742337422 0.015998154122 -0.733886435428
0.917738000000 0.000000000000 0.000000000000 0.130387967071 0.132261955116 0.141449349173 0.124042620279 -0.096222518494 -0.720701233825
0.924736000000 0.000000000000 0.000000000000 0.173905512830 0.073768205840 0.173302546311 0.059126130338 -0.204986076574 -0.692491773266
0.931734000000 0.000000000000 0.000000000000 0.191541590478 0.002794129165 0.178143863307 -0.006942613617 -0.308677133244 -0.649533530950
0.938732000000 0.000000000000 0.000000000000 0.181298573012 -0.069518761275 0.163457740345 -0.065528279811 -0.408202098847 -0.592086506411
0.945730000000 0.000000000000 0.000000000000 0.146777063835 -0.133087585178 0.137016455145 -0.116089887292 -0.499999657207 -0.516822497250
0.952728000000 0.000000000000 0.000000000000 0.093087504312 -0.184775382355 0.098006541702 -0.166398733438 -0.578483104106 -0.419598787632
0.959726000000 0.000000000000 0.000000000000 0.015143640271 -0.220738383508 0.029354097785 -0.212570211131 -0.630767129108 -0.307999382982
0.966724000000 0.000000000000 0.000000000000 -0.083950641937 -0.218796852371 -0.072213839241 -0.219702170892 -0.656945175364 -0.196147349277
0.973722000000 0.000000000000 0.000000000000 -0.177272220111 -0.164185110713 -0.169174911804 -0.166448027673 -0.665127035927 -0.091295813426
0.980720000000 0.000000000000 0.000000000000 -0.232034811673 -0.067255169836 -0.222000182937 -0.070732436563 -0.661017604313 0.004677892167
0.987718000000 0.000000000000 0.000000000000 -0.230250117378 0.040352370448 -0.218844424984 0.030387625514 -0.652166645951 0.095989728560
0.994716000000 0.000000000000 0.000000000000 -0.182440689513 0.127432182878 -0.177279516260 0.108329711864 -0.636223415084 0.188147977551
1.001714000000 0.000000000000 0.000000000000 -0.107338787505 0.179240909618 -0.116897016002 0.157354693483 -0.611176742296 0.281533020978
