# GHZ S RI R 50.000000000000
0.001000000000 0.000000000000 0.000000000000 0.988678458385 -0.059397175703 0.998139221124 -0.052408751010 0.012646740511 -0.000847115896
0.007998000000 0.000000000000 0.000000000000 0.880571441207 -0.423772993087 0.879236141510 -0.424982628433 0.000346130022 -0.019283430913
0.014996000000 0.000000000000 0.000000000000 0.653827167581 -0.714325291523 0.651013270797 -0.715975745627 -0.013059443165 -0.023675457206
0.021994000000 0.000000000000 0.000000000000 0.338202001976 -0.902408636849 0.335071985840 -0.902076270822 -0.028221400921 -0.020998054875
0.028992000000 0.000000000000 0.000000000000 -0.020192401550 -0.960269176810 -0.022038824877 -0.958663083433 -0.039764855030 -0.008181042973
0.035990000000 0.000000000000 0.000000000000 -0.376100884976 -0.881107062729 -0.376412219890 -0.879471626055 -0.039740230635 0.009739102115
0.042988000000 0.000000000000 0.000000000000 -0.675214560105 -0.677990060193 -0.674875099293 -0.676572045841 -0.027549978329 0.023582244053
0.049986000000 0.000000000000 0.000000000000 -0.878755084392 -0.375765222082 -0.878075300826 -0.375336253544 -0.009117009085 0.025127039324
0.056984000000 0.000000000000 0.000000000000 -0.953079437562 -0.019841974150 -0.952353285704 -0.019048237713 0.005288004292 0.013342510043
0.063982000000 0.000000000000 0.000000000000 -0.890472126844 0.337110714197 -0.889164805423 0.337128648915 0.007712474130 -0.005263864638
0.070980000000 0.000000000000 0.000000000000 -0.699370503494 0.643441244433 -0.697989401646 0.643345286623 -0.003808178306 -0.020357952496
0.077978000000 0.000000000000 0.000000000000 -0.408547300660 0.856823638501 -0.407244016532 0.855711901426 -0.022738305601 -0.022840161998
0.084976000000 0.000000000000 0.000000000000 -0.059039838006 0.945668819562 -0.059182171889 0.944702067184 -0.037969356396 -0.010877211551
0.091974000000 0.000000000000 0.000000000000 0.297165583902 0.898172104151 0.297408949279 0.896381225684 -0.040016740221 0.008420909206
0.098972000000 0.000000000000 0.000000000000 0.610546685725 0.720660400642 0.609702184259 0.720350860310 -0.027446445223 0.023528912501
0.105970000000 0.000000000000 0.000000000000 0.834903782851 0.441283812926 0.834642119097 0.440863401792 -0.007277725834 0.024866992519
0.112968000000 0.000000000000 0.000000000000 0.937312542193 0.099524622357 0.936472649757 0.098861036110 0.008322690217 0.010758532326
0.119966000000 0.000000000000 0.000000000000 0.905877458960 -0.257167717106 0.904897392991 -0.257272035300 0.009239895282 -0.011048177863
0.126964000000 0.000000000000 0.000000000000 0.743239352146 -0.576485454966 0.742297037563 -0.576000439062 -0.005645298075 -0.028085480255
0.133962000000 0.000000000000 0.000000000000 0.473133643695 -0.810743286855 0.472785905797 -0.809585817786 -0.028377368940 -0.030882889435
0.140960000000 0.000000000000 0.000000000000 0.136739359845 -0.926854521388 0.137356500675 -0.925752965719 -0.047119166029 -0.018098839556
0.147958000000 0.000000000000 0.000000000000 -0.217569289112 -0.909856145033 -0.216219199511 -0.909114574760 -0.052166468123 0.002827433532
0.154956000000 0.000000000000 0.000000000000 -0.539942349601 -0.763096483702 -0.538685517746 -0.762769732129 -0.042661572362 0.019599367817
0.161954000000 0.000000000000 0.000000000000 -0.785020690618 -0.507274957016 -0.783838169663 -0.507297236974 -0.025985169631 0.023664979066
0.168952000000 0.000000000000 0.000000000000 -0.917095805414 -0.177647685534 -0.916194413998 -0.177844362720 -0.013429589553 0.014383570396
0.175950000000 0.000000000000 0.000000000000 -0.915470715877 0.176643249973 -0.915008482410 0.175918511100 -0.013232012298 -0.001276757256
0.182948000000 0.000000000000 0.000000000000 -0.782403157950 0.504288670615 -0.781936172946 0.503522607705 -0.026052937235 -0.012201598172
0.189946000000 0.000000000000 0.000000000000 -0.537323053013 0.757224984645 -0.537723188953 0.756338244138 -0.044371481910 -0.010708682191
0.196944000000 0.000000000000 0.000000000000 -0.217485863906 0.901034779708 -0.217687436647 0.900737215124 -0.058471483082 0.002825734521
0.203942000000 0.000000000000 0.000000000000 0.132686337245 0.916202140191 0.131741206246 0.916229546638 -0.061106593020 0.023074315692
0.210940000000 0.000000000000 0.000000000000 0.462033312819 0.801856846694 0.462847254745 0.801111743244 -0.051532971013 0.040053175588
0.217938000000 0.000000000000 0.000000000000 0.727754756571 0.571845066842 0.727566636557 0.571711768165 -0.034721126438 0.046917874881
0.224936000000 0.000000000000 0.000000000000 0.888374239169 0.259306454824 0.887924271287 0.258703877556 -0.019927772483 0.042212225735
0.231934000000 0.000000000000 0.000000000000 0.920095432676 -0.091218164537 0.919363729364 -0.090972369633 -0.013980214365 0.030032353631
0.238932000000 0.000000000000 0.000000000000 0.818509051170 -0.427752507347 0.818145467906 -0.426945244284 -0.019051605659 0.019083783313
0.245930000000 0.000000000000 0.000000000000 0.599741860675 -0.700687959467 0.598713820390 -0.700166206818 -0.031494515836 0.016699063482
0.252928000000 0.000000000000 0.000000000000 0.294965075321 -0.872680121074 0.294424769393 -0.870845744472 -0.043001455336 0.025575043786
0.259926000000 0.000000000000 0.000000000000 -0.051156706277 -0.918840551504 -0.050483345673 -0.916717863178 -0.046431377786 0.042366547626
0.266924000000 0.000000000000 0.000000000000 -0.388400026156 -0.833029660055 -0.386754014974 -0.831540640583 -0.038026794520 0.060062952392
0.273922000000 0.000000000000 0.000000000000 -0.670042082381 -0.627506907761 -0.667008586533 -0.628351052192 -0.019918807404 0.070639214787
0.280920000000 0.000000000000 0.000000000000 -0.855040672885 -0.332344369103 -0.852744807105 -0.334985505745 0.001676779276 0.069055244980
0.287918000000 0.000000000000 0.000000000000 -0.916244698456 0.010011101267 -0.915416667787 0.007026705028 0.017903517267 0.056300968616
0.294916000000 0.000000000000 0.000000000000 -0.845993610992 0.349933247621 -0.845959729467 0.347170834749 0.022875703435 0.038514714628
0.301914000000 0.000000000000 0.000000000000 -0.654886909341 0.639171194554 -0.655383858926 0.636103891621 0.016380994769 0.024000449451
0.308912000000 0.000000000000 0.000000000000 -0.369478357555 0.836676061662 -0.371891045555 0.832885674444 0.003836163819 0.019800321654
0.315910000000 0.000000000000 0.000000000000 -0.031565414157 0.913105921518 -0.035890637271 0.910500745560 -0.006122600310 0.027205124422
0.322908000000 0.000000000000 0.000000000000 0.310493976959 0.858095347958 0.305029045891 0.858218804098 -0.005762080992 0.041355340159
0.329906000000 0.000000000000 0.000000000000 0.606505357761 0.678934364494 0.602504099267 0.682207565692 0.007566434075 0.052744273249
0.336904000000 0.000000000000 0.000000000000 0.814022750175 0.402946030765 0.812201294268 0.407737257390 0.028239093332 0.052199271450
0.343902000000 0.000000000000 0.000000000000 0.903885224793 0.072160878831 0.904354250759 0.075964641976 0.046456100577 0.037713615563
0.350900000000 0.000000000000 0.000000000000 0.865683677948 -0.267961805929 0.866839533129 -0.265389814012 0.052788077207 0.013679176370
0.357898000000 0.000000000000 0.000000000000 0.704656973319 -0.570100851404 0.705696606307 -0.567744451084 0.043313048452 -0.009076935620
0.364896000000 0.000000000000 0.000000000000 0.441826402596 -0.791945770291 0.443685705232 -0.789067112111 0.023089588703 -0.020421455863
0.371894000000 0.000000000000 0.000000000000 0.114898322314 -0.899429922404 0.117879364937 -0.896985867342 0.002743515822 -0.015953790338
0.378892000000 0.000000000000 0.000000000000 -0.229445957409 -0.876436031885 -0.223967844194 -0.876446456031 -0.006611589580 0.000005744925
0.385890000000 0.000000000000 0.000000000000 -0.538316166540 -0.726664257162 -0.533979002807 -0.729415455772 -0.000172743615 0.015606348540
0.392888000000 0.000000000000 0.000000000000 -0.768487151786 -0.473929268665 -0.766159116216 -0.477764516382 0.016726411884 0.019462445964
0.399886000000 0.000000000000 0.000000000000 -0.888911354050 -0.154214749259 -0.888207137595 -0.157615032093 0.033051483433 0.007122144821
0.406884000000 0.000000000000 0.000000000000 -0.882385546731 0.187338244372 -0.881841324170 0.184604706844 0.036490396026 -0.016836092826
0.413882000000 0.000000000000 0.000000000000 -0.748580607236 0.502258968345 -0.748610807112 0.498418358148 0.022076130887 -0.040241479155
0.420880000000 0.000000000000 0.000000000000 -0.506560722850 0.744554117772 -0.508943905236 0.739376956141 -0.005680462388 -0.051024268496
0.427878000000 0.000000000000 0.000000000000 -0.192674951874 0.878049028329 -0.198303748670 0.873640293404 -0.034952826225 -0.043208193161
0.434876000000 0.000000000000 0.000000000000 0.146928102224 0.885173743916 0.139139107975 0.884273780979 -0.053792927528 -0.020526734993
0.441874000000 0.000000000000 0.000000000000 0.464237974679 0.766646928734 0.457154705844 0.769871376426 -0.054746415811 0.005809097745
0.448872000000 0.000000000000 0.000000000000 0.715244689358 0.539624619463 0.710693773999 0.545653468793 -0.041478817800 0.023554689823
0.455870000000 0.000000000000 0.000000000000 0.864953566545 0.234963629216 0.863206510097 0.241749823036 -0.023797216437 0.025992000827
0.462868000000 0.000000000000 0.000000000000 0.890276582648 -0.103843030898 0.890717882767 -0.097969748833 -0.013597783070 0.015172163414
0.469866000000 0.000000000000 0.000000000000 0.786286821758 -0.428537516083 0.788765221926 -0.422873142717 -0.017831254676 0.000264184775
0.476864000000 0.000000000000 0.000000000000 0.568468394541 -0.689232733003 0.573139400677 -0.685089953899 -0.034736436970 -0.006925964379
0.483862000000 0.000000000000 0.000000000000 0.265598949850 -0.850682519477 0.276837496586 -0.847185918919 -0.055862360288 0.000095494456
0.490860000000 0.000000000000 0.000000000000 -0.063534496553 -0.886946692243 -0.056817197275 -0.887733643658 -0.070504912680 0.020485498752
0.497858000000 0.000000000000 0.000000000000 -0.386865806311 -0.799608966544 -0.381899111140 -0.802625447611 -0.071737101010 0.047347224817
0.504856000000 0.000000000000 0.000000000000 -0.655361895294 -0.599316231733 -0.652343941535 -0.603883729254 -0.058623967701 0.071179060199
0.511854000000 0.000000000000 0.000000000000 -0.831862740626 -0.313527059496 -0.830609142399 -0.318647475218 -0.036285398202 0.083608292297
0.518852000000 0.000000000000 0.000000000000 -0.889412557970 0.018190668079 -0.889869328955 0.013427884937 -0.014457498107 0.082378861642
0.525850000000 0.000000000000 0.000000000000 -0.819021042942 0.348221065607 -0.819628751794 0.344180141636 -0.000533003782 0.072165608535
0.532848000000 0.000000000000 0.000000000000 -0.629975443913 0.629010106158 -0.632121771579 0.623854132954 0.002288936571 0.060814547840
0.539846000000 0.000000000000 0.000000000000 -0.350083488573 0.818056217611 -0.354004730217 0.812845709219 -0.002355990492 0.055482631426
0.546844000000 0.000000000000 0.000000000000 -0.019659680162 0.888969269995 -0.027186946292 0.885012144974 -0.007813060781 0.059821310568
0.553842000000 0.000000000000 0.000000000000 0.312843139668 0.831285280295 0.303313254252 0.831433988419 -0.007127163732 0.070747154576
0.560840000000 0.000000000000 0.000000000000 0.599870002769 0.653406660911 0.590327630068 0.659105295385 0.003469712581 0.082700700517
0.567838000000 0.000000000000 0.000000000000 0.798480856397 0.381792482420 0.793222104498 0.391565356910 0.021984503400 0.087440235342
0.574836000000 0.000000000000 0.000000000000 0.881659259221 0.056842565534 0.881135579533 0.067308761031 0.042099950461 0.081721543246
0.581834000000 0.000000000000 0.000000000000 0.838345516083 -0.274823652182 0.840793144524 -0.265752996899 0.056458160061 0.066489835675
0.588832000000 0.000000000000 0.000000000000 0.675615244059 -0.566141465791 0.680149613055 -0.558092481118 0.060821431342 0.048059938190
0.595830000000 0.000000000000 0.000000000000 0.417172991214 -0.776824248896 0.425057300782 -0.769016345552 0.054856100189 0.033216193189
0.602828000000 0.000000000000 0.000000000000 0.098035361503 -0.876213527397 0.110276521318 -0.871270312203 0.044667074309 0.029003968839
0.609826000000 0.000000000000 0.000000000000 -0.234726571140 -0.849285989347 -0.220385774650 -0.851364571497 0.038917110570 0.034920279378
0.616824000000 0.000000000000 0.000000000000 -0.533103004279 -0.698660353339 -0.522999646850 -0.708150013145 0.043919434559 0.045046457870
0.623822000000 0.000000000000 0.000000000000 -0.752338198421 -0.448128080670 -0.749522211326 -0.461332004580 0.060250137872 0.048646714258
0.630820000000 0.000000000000 0.000000000000 -0.862162810116 -0.136778145826 -0.866204201630 -0.147072071730 0.081013735526 0.039662660400
0.637818000000 0.000000000000 0.000000000000 -0.849718109995 0.191126324849 -0.855645204264 0.186213297549 0.096039551580 0.016371665673
0.644816000000 0.000000000000 0.000000000000 -0.719662392550 0.489463184909 -0.723246933793 0.488106737653 0.096504812659 -0.014559663003
0.651814000000 0.000000000000 0.000000000000 -0.489465731812 0.722265330575 -0.491128767234 0.718914416289 0.079538619285 -0.041366468936
0.658812000000 0.000000000000 0.000000000000 -0.187340707098 0.854825649292 -0.191247873028 0.849040951921 0.052689815977 -0.053838658565
0.665810000000 0.000000000000 0.000000000000 0.145327771188 0.864048951828 0.136588002932 0.861113667485 0.027499920608 -0.049812794697
0.672808000000 0.000000000000 0.000000000000 0.457970134292 0.747622208967 0.447947582419 0.750172703192 0.013709656632 -0.034947247602
0.679806000000 0.000000000000 0.000000000000 0.703818812448 0.522306128128 0.697481939573 0.529394625745 0.014569299836 -0.020765450493
0.686804000000 0.000000000000 0.000000000000 0.847018639219 0.222269575885 0.844820710236 0.230366761759 0.024691018751 -0.017188155520
0.693802000000 0.000000000000 0.000000000000 0.868337759714 -0.107775462737 0.867929529223 -0.100922127660 0.032835572345 -0.027358110825
0.700800000000 0.000000000000 0.000000000000 0.765533961728 -0.422890654614 0.765594524050 -0.416094120520 0.029652204956 -0.045792786298
0.707798000000 0.000000000000 0.000000000000 0.553406399568 -0.677292944478 0.555774024894 -0.668098744471 0.011551472625 -0.061579225826
0.714796000000 0.000000000000 0.000000000000 0.260362037968 -0.834524630479 0.268219756178 -0.825686708811 -0.016617608690 -0.065298570618
0.721794000000 0.000000000000 0.000000000000 -0.069728289252 -0.870484273542 -0.056020434549 -0.865278203741 -0.044128428400 -0.053291835110
0.728792000000 0.000000000000 0.000000000000 -0.387623080105 -0.780459970596 -0.372142167984 -0.783158126704 -0.061773674633 -0.028808604733
0.735790000000 0.000000000000 0.000000000000 -0.648828975249 -0.579673086244 -0.636483196795 -0.590284222818 -0.063540059285 -0.001468182967
0.742788000000 0.000000000000 0.000000000000 -0.816936689900 -0.297004091386 -0.811473059868 -0.311524154721 -0.052808189791 0.018548848750
0.749786000000 0.000000000000 0.000000000000 -0.868861912036 0.027053231736 -0.870228417283 0.013067174507 -0.038105963673 0.025512329155
0.756784000000 0.000000000000 0.000000000000 -0.796383485957 0.348930152752 -0.802641558336 0.336640377636 -0.028736510150 0.021461875119
0.763782000000 0.000000000000 0.000000000000 -0.607726014224 0.620396816826 -0.617829022481 0.611416581459 -0.029740917050 0.013440046475
0.770780000000 0.000000000000 0.000000000000 -0.331376091904 0.800608386573 -0.344479058415 0.795488198639 -0.041020200298 0.010429433647
0.777778000000 0.000000000000 0.000000000000 -0.009349390128 0.864911836691 -0.024806480898 0.864926997725 -0.056461257565 0.018083660433
0.784776000000 0.000000000000 0.000000000000 0.310299087801 0.803991883691 0.297238162767 0.810642911098 -0.067160795313 0.037031314989
0.791774000000 0.000000000000 0.000000000000 0.584536059857 0.630670420550 0.575686011704 0.642950562747 -0.067363222041 0.061172652931
0.798772000000 0.000000000000 0.000000000000 0.776349872132 0.369659215657 0.773246352930 0.383334906899 -0.055641374315 0.084369190108
0.805770000000 0.000000000000 0.000000000000 0.858483147663 0.055989093207 0.860648355579 0.068749675508 -0.034724980451 0.099250766336
0.812768000000 0.000000000000 0.000000000000 0.819037213352 -0.267589368636 0.823925544277 -0.256837772797 -0.011786080230 0.102900076468
0.819766000000 0.000000000000 0.000000000000 0.662072842126 -0.553648008131 0.668166641556 -0.544673103402 0.006571677365 0.096537584050
0.826764000000 0.000000000000 0.000000000000 0.408294963388 -0.761073163793 0.417093289946 -0.752741700825 0.016880644823 0.086731853833
0.833762000000 0.000000000000 0.000000000000 0.094123543870 -0.859504085100 0.107757469932 -0.853038243307 0.019119441375 0.079086916194
0.840760000000 0.000000000000 0.000000000000 -0.233390152037 -0.831902584001 -0.216570605446 -0.831317568941 0.017988052114 0.078628014998
0.847758000000 0.000000000000 0.000000000000 -0.526745459426 -0.683328585479 -0.510927513064 -0.691099691576 0.019966665718 0.085268668509
0.854756000000 0.000000000000 0.000000000000 -0.742089568484 -0.436479845255 -0.732444574479 -0.451002152174 0.030335868359 0.094824217478
0.861754000000 0.000000000000 0.000000000000 -0.849055175637 -0.128903647760 -0.846522566538 -0.144500369516 0.049796733279 0.100131625227
0.868752000000 0.000000000000 0.000000000000 -0.833155666966 0.196279013496 -0.836580174948 0.181564949412 0.074158996020 0.096042748501
0.875750000000 0.000000000000 0.000000000000 -0.699309549479 0.490086522905 -0.705715963542 0.477013701878 0.096065379182 0.080084807034
0.882748000000 0.000000000000 0.000000000000 -0.467242854701 0.713122918604 -0.479004019876 0.701258165924 0.110127747045 0.056461755942
0.889746000000 0.000000000000 0.000000000000 -0.170060845482 0.833948965660 -0.187324287447 0.826539358023 0.112189923736 0.030881118425
0.896744000000 0.000000000000 0.000000000000 0.150550125616 0.837076869498 0.129010140646 0.838527763520 0.104319859684 0.010731217622
0.903742000000 0.000000000000 0.000000000000 0.450104252612 0.721298966177 0.431032255607 0.734339676457 0.093212780998 0.001306774010
0.910740000000 0.000000000000 0.000000000000 0.685467753067 0.501973771908 0.676173100058 0.522788528027 0.087747545158 0.000776719294
0.917738000000 0.000000000000 0.000000000000 0.821630574023 0.210006661026 0.824402648001 0.229784605133 0.091065138398 0.000440384658
0.924736000000 0.000000000000 0.000000000000 0.838507619123 -0.109607078772 0.847417613930 -0.097177125155 0.100467131087 -0.006277152928
0.931734000000 0.000000000000 0.000000000000 0.736943288554 -0.410303044915 0.745491765830 -0.405111364078 0.108734973881 -0.024223447320
0.938732000000 0.000000000000 0.000000000000 0.534063845462 -0.651539655000 0.539279843292 -0.646384960683 0.107530567771 -0.049097091218
0.945730000000 0.000000000000 0.000000000000 0.257861872535 -0.802993338436 0.265591569364 -0.795007448823 0.093933700035 -0.072949081651
0.952728000000 0.000000000000 0.000000000000 -0.056871738041 -0.843543202525 -0.043231883816 -0.837266084643 0.070768493589 -0.087784302507
0.959726000000 0.000000000000 0.000000000000 -0.366967347403 -0.764795611707 -0.349200996635 -0.767127070550 0.044857556057 -0.090678642578
0.966724000000 0.000000000000 0.000000000000 -0.627766449503 -0.574729793878 -0.613532211235 -0.585549694128 0.024880264195 -0.082783565104
0.973722000000 0.000000000000 0.000000000000 -0.798340061950 -0.298702523297 -0.791527983302 -0.313843428637 0.014457947899 -0.071720657852
0.980720000000 0.000000000000 0.000000000000 -0.853352804101 0.021355361592 -0.851914083064 0.006510824361 0.011752139481 -0.063088236716
0.987718000000 0.000000000000 0.000000000000 -0.784030726935 0.337863017412 -0.785091119874 0.324708794128 0.011378627607 -0.061150954332
0.994716000000 0.000000000000 0.000000000000 -0.602070176057 0.604751164994 -0.604704432985 0.590751280614 0.007800977080 -0.065687816876
1.001714000000 0.000000000000 0.000000000000 -0.333032741896 0.785380950364 -0.341500949618 0.770152959991 -0.003774728057 -0.071600633213
