# GHZ S RI R 50.000000000000
0.001000000000 0.000000000000 0.000000000000 0.996309930743 -0.060017290495 0.994533439593 -0.058621721215 0.016195298481 -0.001742621370
0.007998000000 0.000000000000 0.000000000000 0.880319051443 -0.423590491706 0.878862152741 -0.425167668588 -0.000046270420 -0.018782958726
0.014996000000 0.000000000000 0.000000000000 0.653642172408 -0.714386697977 0.650522955615 -0.716013496333 -0.013029349745 -0.022704673519
0.021994000000 0.000000000000 0.000000000000 0.337901587628 -0.902171870404 0.334556156542 -0.902122566455 -0.027774608800 -0.020041623994
0.028992000000 0.000000000000 0.000000000000 -0.020661098758 -0.959910660511 -0.022628523147 -0.958403568602 -0.038900993069 -0.007358947363
0.035990000000 0.000000000000 0.000000000000 -0.376808202750 -0.880506703572 -0.377002277094 -0.878630004671 -0.038670765786 0.010465918197
0.042988000000 0.000000000000 0.000000000000 -0.675749298472 -0.677150521955 -0.675297358792 -0.675823420467 -0.026427254673 0.024425766622
0.049986000000 0.000000000000 0.000000000000 -0.878739108104 -0.374572822403 -0.877892029403 -0.373943330269 -0.007685596391 0.026028060500
0.056984000000 0.000000000000 0.000000000000 -0.952582735934 -0.018686160993 -0.951716575389 -0.017902658240 0.007178642544 0.014352558961
0.063982000000 0.000000000000 0.000000000000 -0.889419997906 0.338341778172 -0.888368370610 0.338337010487 0.010278316174 -0.004511148974
0.070980000000 0.000000000000 0.000000000000 -0.697877166450 0.644458156728 -0.696665478387 0.644005556861 -0.000647880822 -0.020111575840
0.077978000000 0.000000000000 0.000000000000 -0.406851150540 0.857239346139 -0.405342729516 0.856148672170 -0.019257059316 -0.023394151210
0.084976000000 0.000000000000 0.000000000000 -0.057060317171 0.945528465301 -0.056808750849 0.944354277092 -0.034428784621 -0.012349255765
0.091974000000 0.000000000000 0.000000000000 0.299839088187 0.896210293124 0.300149115603 0.894957377635 -0.036658883390 0.006161386138
0.098972000000 0.000000000000 0.000000000000 0.611812288568 0.718894539041 0.611050261770 0.718460084410 -0.024407218713 0.020782856988
0.105970000000 0.000000000000 0.000000000000 0.835155054497 0.438929385502 0.834726158159 0.438192995276 -0.004698253272 0.021614463317
0.112968000000 0.000000000000 0.000000000000 0.937066166289 0.096715472567 0.936186799252 0.095859548878 0.010443859676 0.007103258947
0.119966000000 0.000000000000 0.000000000000 0.904408876015 -0.259792338707 0.903217322453 -0.260010088303 0.010799369673 -0.014952929777
0.126964000000 0.000000000000 0.000000000000 0.740757368814 -0.578406926661 0.739711949670 -0.577670899533 -0.004651543524 -0.032185022106
0.133962000000 0.000000000000 0.000000000000 0.470108462166 -0.811531203507 0.469694312177 -0.810346387146 -0.027831499558 -0.035181460334
0.140960000000 0.000000000000 0.000000000000 0.133598703951 -0.926435710941 0.133815203432 -0.925214978431 -0.047042579477 -0.022488607562
0.147958000000 0.000000000000 0.000000000000 -0.220562457148 -0.908450716012 -0.219167275060 -0.907575014290 -0.052699725635 -0.001798921447
0.154956000000 0.000000000000 0.000000000000 -0.542237324839 -0.760526500589 -0.541159570560 -0.759890395120 -0.043822449653 0.014852511615
0.161954000000 0.000000000000 0.000000000000 -0.786187455985 -0.503573568319 -0.785006286140 -0.503724121273 -0.027984230566 0.018867416253
0.168952000000 0.000000000000 0.000000000000 -0.916542001294 -0.173746104988 -0.915911496983 -0.173818310213 -0.016468043483 0.009758814504
0.175950000000 0.000000000000 0.000000000000 -0.913801091218 0.180566700735 -0.913108449812 0.180195894434 -0.017378523776 -0.005375586634
0.182948000000 0.000000000000 0.000000000000 -0.778813382667 0.507461118259 -0.778403363000 0.506662592414 -0.031029697590 -0.015319823676
0.189946000000 0.000000000000 0.000000000000 -0.532933345380 0.758591092602 -0.533240549211 0.757830432722 -0.049920426687 -0.012884852394
0.196944000000 0.000000000000 0.000000000000 -0.213144195029 0.900341166117 -0.213397345976 0.900123574616 -0.064319910704 0.001780647212
0.203942000000 0.000000000000 0.000000000000 0.136505975394 0.914061978155 0.135610226637 0.913963523008 -0.066958691791 0.022928265088
0.210940000000 0.000000000000 0.000000000000 0.464892305635 0.798627143792 0.465607794108 0.797827006544 -0.057429826400 0.040798263546
0.217938000000 0.000000000000 0.000000000000 0.729403802386 0.567310221375 0.729121106416 0.567187356333 -0.040667896368 0.048681731581
0.224936000000 0.000000000000 0.000000000000 0.888237103572 0.254433502107 0.887521746685 0.254062625092 -0.025713726901 0.045129083797
0.231934000000 0.000000000000 0.000000000000 0.918201245361 -0.095776791475 0.917450922872 -0.095389476625 -0.019236311586 0.034140319591
0.238932000000 0.000000000000 0.000000000000 0.815174696676 -0.431237006997 0.814437440420 -0.430207277691 -0.023491177704 0.024182906427
0.245930000000 0.000000000000 0.000000000000 0.595000933033 -0.702787562441 0.594056077955 -0.701741790652 -0.034675211845 0.022313212847
0.252928000000 0.000000000000 0.000000000000 0.289620987811 -0.872905409486 0.288987531309 -0.870905173035 -0.045105275661 0.031303066968
0.259926000000 0.000000000000 0.000000000000 -0.056154591586 -0.916766823759 -0.055383656425 -0.914716510362 -0.047710286942 0.047997681586
0.266924000000 0.000000000000 0.000000000000 -0.392447744516 -0.829068240850 -0.390558860780 -0.827780001136 -0.038740715014 0.065529978877
0.273922000000 0.000000000000 0.000000000000 -0.672528171550 -0.622424573008 -0.669234763885 -0.623484929325 -0.020430748847 0.076083318389
0.280920000000 0.000000000000 0.000000000000 -0.855416885159 -0.326600486768 -0.853015915694 -0.329357629650 0.001505034156 0.074758842107
0.287918000000 0.000000000000 0.000000000000 -0.914367578030 0.015698684770 -0.913506521531 0.012646586590 0.018428621036 0.062473756583
0.294916000000 0.000000000000 0.000000000000 -0.842028769067 0.354424320810 -0.842005618047 0.352009505762 0.024441539409 0.045039197703
0.301914000000 0.000000000000 0.000000000000 -0.649192491158 0.642351274774 -0.649436327806 0.639119053071 0.019239251995 0.030588250124
0.308912000000 0.000000000000 0.000000000000 -0.362807682264 0.837484175136 -0.365050298659 0.833634753369 0.008179313306 0.025864839345
0.315910000000 0.000000000000 0.000000000000 -0.024853721212 0.911358718233 -0.029220617760 0.908361944844 -0.000432786320 0.032369139656
0.322908000000 0.000000000000 0.000000000000 0.316184004316 0.853650615864 0.311193290520 0.853670225645 0.000864000650 0.045351556725
0.329906000000 0.000000000000 0.000000000000 0.610381374592 0.672484825645 0.606400855635 0.675960815488 0.014632940651 0.055231452169
0.336904000000 0.000000000000 0.000000000000 0.815112206840 0.395457793890 0.813594313369 0.400452349786 0.035213667850 0.053363579627
0.343902000000 0.000000000000 0.000000000000 0.901998334538 0.064677735234 0.902679972611 0.068309504045 0.053167045229 0.037735856658
0.350900000000 0.000000000000 0.000000000000 0.860877258442 -0.274287574395 0.862116447143 -0.271792681483 0.059180724762 0.012759921334
0.357898000000 0.000000000000 0.000000000000 0.698188125151 -0.574125301534 0.698941681204 -0.572167816538 0.049335671643 -0.010651196979
0.364896000000 0.000000000000 0.000000000000 0.434656732310 -0.793711967188 0.436254830514 -0.790359546991 0.028910761830 -0.022543523369
0.371894000000 0.000000000000 0.000000000000 0.107161157839 -0.898158719505 0.110671743511 -0.895455735079 0.008580200845 -0.018822826803
0.378892000000 0.000000000000 0.000000000000 -0.236433557748 -0.872291854553 -0.230675577299 -0.872684761331 -0.001016062135 -0.003910725874
0.385890000000 0.000000000000 0.000000000000 -0.543238057542 -0.720234968324 -0.539297937099 -0.723081024403 0.005043665639 0.010455714600
0.392888000000 0.000000000000 0.000000000000 -0.770795131481 -0.465708430277 -0.768603459638 -0.470045145510 0.020956759968 0.012988745840
0.399886000000 0.000000000000 0.000000000000 -0.888083952119 -0.145533849598 -0.887399666756 -0.149376547927 0.035803770855 -0.000373287765
0.406884000000 0.000000000000 0.000000000000 -0.878220210098 0.194859063965 -0.877616190532 0.191567028475 0.037369383791 -0.024841193352
0.413882000000 0.000000000000 0.000000000000 -0.741822933434 0.507733758727 -0.741667877262 0.503502197851 0.021233031855 -0.047994079150
0.420880000000 0.000000000000 0.000000000000 -0.497942842541 0.746951869109 -0.500620277504 0.741435224404 -0.007781478873 -0.058222120127
0.427878000000 0.000000000000 0.000000000000 -0.183736782199 0.877260468303 -0.189733884306 0.872402974083 -0.037857317928 -0.049706330830
0.434876000000 0.000000000000 0.000000000000 0.154944707809 0.881149777025 0.146794495951 0.879994314432 -0.057376939365 -0.026617355501
0.441874000000 0.000000000000 0.000000000000 0.470584558816 0.760000192005 0.462627718115 0.763412691841 -0.058955324408 0.000028252281
0.448872000000 0.000000000000 0.000000000000 0.719014443295 0.530449317715 0.713828450241 0.537103222933 -0.046662642960 0.017942735668
0.455870000000 0.000000000000 0.000000000000 0.865078037705 0.224875967508 0.862861199851 0.232508376339 -0.030188883610 0.020887577951
0.462868000000 0.000000000000 0.000000000000 0.886269721721 -0.113322200722 0.886824512979 -0.107039654705 -0.021288082195 0.011097130222
0.469866000000 0.000000000000 0.000000000000 0.778517918474 -0.435774935305 0.781412639433 -0.429668258460 -0.026495775050 -0.002235766614
0.476864000000 0.000000000000 0.000000000000 0.558302103640 -0.692879444906 0.563706294756 -0.688605413843 -0.043783105303 -0.007553716235
0.483862000000 0.000000000000 0.000000000000 0.255052942476 -0.850295724042 0.266875554851 -0.846637344920 -0.064555282878 0.001335279417
0.490860000000 0.000000000000 0.000000000000 -0.072580700054 -0.882552897292 -0.065798037666 -0.883611073412 -0.078529165287 0.023034810301
0.497858000000 0.000000000000 0.000000000000 -0.393868853567 -0.792103855663 -0.388826452372 -0.795757151906 -0.079017129299 0.050713792536
0.504856000000 0.000000000000 0.000000000000 -0.659349481547 -0.589857818536 -0.656379078039 -0.594635903507 -0.065397941826 0.075349421328
0.511854000000 0.000000000000 0.000000000000 -0.832147434188 -0.303195401825 -0.831154325873 -0.308155933975 -0.042884149580 0.088515838941
0.518852000000 0.000000000000 0.000000000000 -0.885871358987 0.028063350999 -0.886464687133 0.023803896432 -0.020797289413 0.088507982965
0.525850000000 0.000000000000 0.000000000000 -0.813018378213 0.356438454170 -0.812854404049 0.352432344670 -0.006452416670 0.079867710395
0.532848000000 0.000000000000 0.000000000000 -0.620614353516 0.634598310799 -0.622411304360 0.628974653470 -0.002475541026 0.070241601563
0.539846000000 0.000000000000 0.000000000000 -0.339074044475 0.819659974867 -0.343291629486 0.813948549511 -0.005315621463 0.066362700879
0.546844000000 0.000000000000 0.000000000000 -0.008586048685 0.886315790379 -0.016974267457 0.881978026827 -0.008484223990 0.071552814797
0.553842000000 0.000000000000 0.000000000000 0.322426689460 0.824544965192 0.311534141239 0.824979348969 -0.005249019886 0.082739385157
0.560840000000 0.000000000000 0.000000000000 0.605664874885 0.642982330578 0.595987629264 0.649689197192 0.007826930159 0.094195024172
0.567838000000 0.000000000000 0.000000000000 0.800396531334 0.369810247931 0.794830938944 0.380294200484 0.028493965573 0.098005536041
0.574836000000 0.000000000000 0.000000000000 0.878803776510 0.044706381087 0.878167060653 0.056168786670 0.050485608369 0.091062486160
0.581834000000 0.000000000000 0.000000000000 0.830844654934 -0.284866357984 0.833830568951 -0.274923458798 0.066352555412 0.074615946344
0.588832000000 0.000000000000 0.000000000000 0.665428882647 -0.572593291770 0.670608740393 -0.563396955585 0.072199658262 0.054478901146
0.595830000000 0.000000000000 0.000000000000 0.404856846331 -0.778752530785 0.413524062306 -0.770350264421 0.067566764864 0.037673968318
0.602828000000 0.000000000000 0.000000000000 0.086009803482 -0.873512530889 0.099386788065 -0.868519893595 0.058184584911 0.031141836891
0.609826000000 0.000000000000 0.000000000000 -0.244808550198 -0.841917198596 -0.229717809455 -0.844919246366 0.052713983232 0.034559574438
0.616824000000 0.000000000000 0.000000000000 -0.540122197160 -0.687937234462 -0.529716299856 -0.699039238524 0.057574334087 0.042189955450
0.623822000000 0.000000000000 0.000000000000 -0.754678078108 -0.435671735113 -0.752799115399 -0.450062843862 0.072993497342 0.043583823697
0.630820000000 0.000000000000 0.000000000000 -0.859313512520 -0.123964039787 -0.864604087960 -0.135130083519 0.092507502450 0.032708225457
0.637818000000 0.000000000000 0.000000000000 -0.842769109887 0.201403400164 -0.849143634647 0.196847953087 0.105887893706 0.008127697816
0.644816000000 0.000000000000 0.000000000000 -0.709652028140 0.497176118276 -0.713170839939 0.495606585314 0.104773792469 -0.023726883924
0.651814000000 0.000000000000 0.000000000000 -0.477662531163 0.725326488092 -0.478967391447 0.721812083902 0.086513110706 -0.050725617094
0.658812000000 0.000000000000 0.000000000000 -0.174869018441 0.853483300828 -0.179313293717 0.847244672738 0.059070350790 -0.063604982860
0.665810000000 0.000000000000 0.000000000000 0.156484299218 0.858612239992 0.146925077568 0.855469803272 0.033497715612 -0.060379679742
0.672808000000 0.000000000000 0.000000000000 0.466855772466 0.737939029466 0.456006148446 0.741304356635 0.019064140887 -0.047006294075
0.679806000000 0.000000000000 0.000000000000 0.708880418572 0.509960186285 0.702466109575 0.517839505663 0.018639292060 -0.034625956947
0.686804000000 0.000000000000 0.000000000000 0.846877959753 0.208341662768 0.845183338506 0.216913124650 0.026266771235 -0.032756734229
0.693802000000 0.000000000000 0.000000000000 0.863029574682 -0.120779596703 0.862575356973 -0.113982272272 0.030972142404 -0.043395401044
0.700800000000 0.000000000000 0.000000000000 0.755468179402 -0.433207129079 0.754845142041 -0.426248990198 0.024354668919 -0.061440767793
0.707798000000 0.000000000000 0.000000000000 0.539414598424 -0.683083406440 0.541230652817 -0.673295503058 0.003304867344 -0.075900525269
0.714796000000 0.000000000000 0.000000000000 0.245518909372 -0.834716486273 0.253310448022 -0.823786803694 -0.027116636365 -0.077744483416
0.721794000000 0.000000000000 0.000000000000 -0.083667846256 -0.864646199453 -0.068473126855 -0.858315085447 -0.056248897537 -0.063717601325
0.728792000000 0.000000000000 0.000000000000 -0.398601660856 -0.769901907122 -0.381188298039 -0.772915069077 -0.075090901859 -0.037268720058
0.735790000000 0.000000000000 0.000000000000 -0.654908759379 -0.565809089352 -0.641306559479 -0.577626544244 -0.078242313134 -0.008017590399
0.742788000000 0.000000000000 0.000000000000 -0.817306406171 -0.281702437433 -0.811541373327 -0.297888750648 -0.068852632522 0.014105040962
0.749786000000 0.000000000000 0.000000000000 -0.863560981849 0.041972360129 -0.865459338152 0.025781270531 -0.055416061170 0.023759951795
0.756784000000 0.000000000000 0.000000000000 -0.785281234392 0.360342981776 -0.792861164923 0.347549257314 -0.046437409983 0.022975594500
0.763782000000 0.000000000000 0.000000000000 -0.593100111227 0.626943432079 -0.604186533789 0.617935561093 -0.047116917841 0.018614728795
0.770780000000 0.000000000000 0.000000000000 -0.315265172843 0.800728188416 -0.328898660729 0.796016358169 -0.056893714161 0.019104128085
0.777778000000 0.000000000000 0.000000000000 0.005524025364 0.858946896774 -0.010591731753 0.859142854556 -0.069788831579 0.029633996695
0.784776000000 0.000000000000 0.000000000000 0.321525548266 0.792703643988 0.308021196288 0.800176470270 -0.077539085218 0.050249532827
0.791774000000 0.000000000000 0.000000000000 0.590874278801 0.616412836204 0.581998892118 0.629321521974 -0.074781868542 0.075257252262
0.798772000000 0.000000000000 0.000000000000 0.776687586475 0.354542964068 0.774089474654 0.368437646604 -0.060546206652 0.098628836521
0.805770000000 0.000000000000 0.000000000000 0.853457111628 0.041436401056 0.856121162764 0.054109630502 -0.037456156415 0.113558760984
0.812768000000 0.000000000000 0.000000000000 0.809008533936 -0.278960921867 0.813783960423 -0.268567206415 -0.012566852718 0.117167086707
0.819766000000 0.000000000000 0.000000000000 0.648254040346 -0.561029263478 0.654312682747 -0.551731168843 0.007788862752 0.110783119835
0.826764000000 0.000000000000 0.000000000000 0.392159182200 -0.763040462488 0.401425307787 -0.753793059500 0.020231185012 0.100682910279
0.833762000000 0.000000000000 0.000000000000 0.078370255435 -0.854772675222 0.093018300561 -0.848180740829 0.024693154439 0.092505977032
0.840760000000 0.000000000000 0.000000000000 -0.246969433177 -0.822256775940 -0.228421393550 -0.822216995279 0.025637919691 0.090892604336
0.847758000000 0.000000000000 0.000000000000 -0.535884653156 -0.668838317736 -0.518635797880 -0.678099927362 0.029569528201 0.096057313849
0.854756000000 0.000000000000 0.000000000000 -0.744708123610 -0.419411200676 -0.735000797431 -0.435176086964 0.041693180024 0.104073535711
0.861754000000 0.000000000000 0.000000000000 -0.844809625442 -0.111122281171 -0.842947255372 -0.128197419908 0.062288509375 0.107267292772
0.868752000000 0.000000000000 0.000000000000 -0.822662875517 0.210841611244 -0.826286830592 0.194848457729 0.087709379678 0.101406501021
0.875750000000 0.000000000000 0.000000000000 -0.684077226152 0.499984767682 -0.690918656128 0.485950555129 0.110133463304 0.083558652941
0.882748000000 0.000000000000 0.000000000000 -0.449510887832 0.715768329649 -0.462239044623 0.703345571713 0.124862557514 0.057916841211
0.889746000000 0.000000000000 0.000000000000 -0.152555700887 0.829945842452 -0.171854130135 0.822587222685 0.127353647078 0.029941112519
0.896744000000 0.000000000000 0.000000000000 0.165367598248 0.826836524247 0.142087642246 0.829447455102 0.119689563940 0.007630156734
0.903742000000 0.000000000000 0.000000000000 0.460087602581 0.706358928140 0.440173337044 0.721445448429 0.108420782913 -0.003995690922
0.910740000000 0.000000000000 0.000000000000 0.688718228288 0.484172650052 0.681018672035 0.507257126773 0.102771271735 -0.007138293752
0.917738000000 0.000000000000 0.000000000000 0.817951394437 0.192296975362 0.823040975111 0.212604716093 0.105344754223 -0.010099795757
0.924736000000 0.000000000000 0.000000000000 0.828323827101 -0.124588650823 0.838736914017 -0.112993314765 0.113232439196 -0.019416218773
0.931734000000 0.000000000000 0.000000000000 0.722027942906 -0.419774760520 0.730670446423 -0.416095764518 0.119368644086 -0.039805960208
0.938732000000 0.000000000000 0.000000000000 0.516855409163 -0.654886242548 0.521229552923 -0.650362431824 0.115444788342 -0.066472230733
0.945730000000 0.000000000000 0.000000000000 0.240384832513 -0.800693697669 0.248156554869 -0.791162646384 0.098930828827 -0.091381198988
0.952728000000 0.000000000000 0.000000000000 -0.071501553617 -0.835239066696 -0.057695633172 -0.827696905322 0.072876891900 -0.106811931745
0.959726000000 0.000000000000 0.000000000000 -0.377269148003 -0.752207190137 -0.358769336278 -0.754056671669 0.044325326345 -0.109930085455
0.966724000000 0.000000000000 0.000000000000 -0.633375114559 -0.559129987277 -0.618136390878 -0.570672482352 0.021431351847 -0.102354364028
0.973722000000 0.000000000000 0.000000000000 -0.798616187157 -0.281843971047 -0.791013249537 -0.297814554977 0.008166217505 -0.090561980160
0.980720000000 0.000000000000 0.000000000000 -0.846928687574 0.037826754804 -0.845334040924 0.022586252700 0.002359825252 -0.081045488776
0.987718000000 0.000000000000 0.000000000000 -0.772189054316 0.350950358853 -0.772151027800 0.338088647276 -0.000781553172 -0.077552141477
0.994716000000 0.000000000000 0.000000000000 -0.585082810329 0.613006351022 -0.586949111902 0.597970626695 -0.006706517835 -0.080039968158
1.001714000000 0.000000000000 0.000000000000 -0.313798184508 0.786848892233 -0.322179873698 0.769138867604 -0.020347845276 -0.083613589854
