# GHZ S RI R 50.000000000000
0.001000000000 0.000000000000 0.000000000000 0.995466693404 -0.054558147898 1.001013146068 -0.056646959765 0.015341499736 -0.000048272712
0.007998000000 0.000000000000 0.000000000000 0.882289544982 -0.424628311291 0.880957171494 -0.425829421554 0.000085552622 -0.019362113044
0.014996000000 0.000000000000 0.000000000000 0.655108452890 -0.716111323759 0.652427246646 -0.717338238066 -0.013669285869 -0.024277135755
0.021994000000 0.000000000000 0.000000000000 0.338703419968 -0.904380601691 0.336046341322 -0.904224463656 -0.029401119356 -0.021791516278
0.028992000000 0.000000000000 0.000000000000 -0.020310171872 -0.962344808891 -0.022130128432 -0.960849491105 -0.041397069805 -0.008837271284
0.035990000000 0.000000000000 0.000000000000 -0.377033781688 -0.882937033029 -0.377138592929 -0.881347257626 -0.041738622751 0.009200447173
0.042988000000 0.000000000000 0.000000000000 -0.676993670674 -0.679143965468 -0.676409150035 -0.678136310317 -0.029864922436 0.023287841498
0.049986000000 0.000000000000 0.000000000000 -0.880800580495 -0.376516031689 -0.879991054729 -0.376185879426 -0.011954711487 0.025056233746
0.056984000000 0.000000000000 0.000000000000 -0.955181169852 -0.019816923089 -0.954383467116 -0.019481420804 0.002054875758 0.013749441806
0.063982000000 0.000000000000 0.000000000000 -0.892450307681 0.337621457161 -0.891189185109 0.337783072825 0.004247479816 -0.004231787376
0.070980000000 0.000000000000 0.000000000000 -0.701065622496 0.644766475878 -0.700014952434 0.644205819005 -0.007290242642 -0.018703510190
0.077978000000 0.000000000000 0.000000000000 -0.409515448994 0.858508710169 -0.408420145400 0.857414873516 -0.026057880978 -0.020764662337
0.084976000000 0.000000000000 0.000000000000 -0.059410418491 0.947558345401 -0.059643876534 0.946475958722 -0.041305393530 -0.008538941879
0.091974000000 0.000000000000 0.000000000000 0.298123604087 0.899270268258 0.297630276213 0.898646372380 -0.043543893325 0.010962941980
0.098972000000 0.000000000000 0.000000000000 0.611085453917 0.722457843377 0.610154756300 0.722241546817 -0.031364969225 0.026765049826
0.105970000000 0.000000000000 0.000000000000 0.836679645102 0.443627885067 0.836236565725 0.443294520137 -0.011464131654 0.029086644777
0.112968000000 0.000000000000 0.000000000000 0.938950556353 0.100524740729 0.938255583641 0.100093984209 0.004176014112 0.016501676267
0.119966000000 0.000000000000 0.000000000000 0.908049903258 -0.256953424653 0.907286949767 -0.256588597270 0.005906061662 -0.003871965884
0.126964000000 0.000000000000 0.000000000000 0.745516718163 -0.577021871453 0.744877620247 -0.576096582804 -0.007527395616 -0.019762235795
0.133962000000 0.000000000000 0.000000000000 0.475368344205 -0.811990986067 0.475135543940 -0.810887813038 -0.028576040083 -0.021922751424
0.140960000000 0.000000000000 0.000000000000 0.137984110272 -0.928656075506 0.138829584642 -0.927726370524 -0.045620290104 -0.009125203207
0.147958000000 0.000000000000 0.000000000000 -0.216817520984 -0.912160435775 -0.215325495050 -0.911578399898 -0.049189966436 0.011440106889
0.154956000000 0.000000000000 0.000000000000 -0.539762113931 -0.765276594514 -0.538636053985 -0.765127390410 -0.038440737806 0.027843516613
0.161954000000 0.000000000000 0.000000000000 -0.785393131218 -0.509569949448 -0.784339964638 -0.509744574586 -0.020460980642 0.031518124705
0.168952000000 0.000000000000 0.000000000000 -0.918094581027 -0.180130854679 -0.917484750537 -0.180202359955 -0.006394977494 0.021586193235
0.175950000000 0.000000000000 0.000000000000 -0.917897847493 0.174928463112 -0.917277997632 0.174340911953 -0.004702808651 0.004835274223
0.182948000000 0.000000000000 0.000000000000 -0.785645588337 0.503387743378 -0.785046441757 0.502941763728 -0.016401613823 -0.007746456607
0.189946000000 0.000000000000 0.000000000000 -0.540340392540 0.757898775959 -0.541065158010 0.757025139823 -0.034092369912 -0.008277152444
0.196944000000 0.000000000000 0.000000000000 -0.220219098945 0.902613231973 -0.220705743846 0.902460520606 -0.048345705159 0.003526837915
0.203942000000 0.000000000000 0.000000000000 0.130874869383 0.918845720191 0.130156312209 0.918789731247 -0.051462782671 0.022372726368
0.210940000000 0.000000000000 0.000000000000 0.461544275628 0.804763819085 0.462081736044 0.804089546576 -0.042431498078 0.038682266546
0.217938000000 0.000000000000 0.000000000000 0.728203486720 0.574567547202 0.727773260172 0.574607295009 -0.025638346042 0.045160440113
0.224936000000 0.000000000000 0.000000000000 0.889681291517 0.261946028396 0.888913394073 0.261953978886 -0.010243238961 0.040033958846
0.231934000000 0.000000000000 0.000000000000 0.922133299738 -0.088887112567 0.921692701494 -0.088082585925 -0.003541787735 0.026717949623
0.238932000000 0.000000000000 0.000000000000 0.821515760846 -0.425854731934 0.821283979366 -0.424978622023 -0.007860095434 0.013777642712
0.245930000000 0.000000000000 0.000000000000 0.603024098568 -0.700242354740 0.602998653954 -0.699433894691 -0.020150184240 0.008763359654
0.252928000000 0.000000000000 0.000000000000 0.298728457441 -0.873608824764 0.298542131318 -0.872131677966 -0.032681388100 0.014478932915
0.259926000000 0.000000000000 0.000000000000 -0.047908609282 -0.920887192635 -0.047071157381 -0.919402974390 -0.038255071858 0.028519586818
0.266924000000 0.000000000000 0.000000000000 -0.386377439369 -0.836185701404 -0.384626476410 -0.835263141632 -0.032817161489 0.044124363903
0.273922000000 0.000000000000 0.000000000000 -0.669440517921 -0.631374161235 -0.666700289640 -0.631904074667 -0.018500139036 0.053835795317
0.280920000000 0.000000000000 0.000000000000 -0.855915386959 -0.336424389662 -0.853554100428 -0.338695237620 -0.000459767043 0.052575389003
0.287918000000 0.000000000000 0.000000000000 -0.918302321027 0.006854062356 -0.917485499193 0.003905691447 0.012553939408 0.040983845232
0.294916000000 0.000000000000 0.000000000000 -0.849157406434 0.347400643515 -0.849067631438 0.345103024698 0.015172189952 0.024920440983
0.301914000000 0.000000000000 0.000000000000 -0.658691095708 0.637785788547 -0.659025193287 0.635288961015 0.006828285158 0.012337247213
0.308912000000 0.000000000000 0.000000000000 -0.373630177722 0.836474134729 -0.375726561074 0.833347911244 -0.006872510410 0.009981473456
0.315910000000 0.000000000000 0.000000000000 -0.035788239825 0.914509737788 -0.038929961146 0.911980257628 -0.017761717593 0.018993627077
0.322908000000 0.000000000000 0.000000000000 0.306936582275 0.861058980610 0.302295278989 0.860837954256 -0.018238283627 0.034467850637
0.329906000000 0.000000000000 0.000000000000 0.604835559072 0.683601034217 0.600915229829 0.685794096656 -0.005977108475 0.047054179729
0.336904000000 0.000000000000 0.000000000000 0.813809455101 0.408234721649 0.812132124410 0.412090685396 0.013244975441 0.048197991905
0.343902000000 0.000000000000 0.000000000000 0.906040994506 0.076606733069 0.905550244427 0.080501219494 0.030136490228 0.035770982094
0.350900000000 0.000000000000 0.000000000000 0.869148878709 -0.264785964512 0.869343252676 -0.261651952260 0.035467423136 0.014398693834
0.357898000000 0.000000000000 0.000000000000 0.708523031330 -0.568576370786 0.709592013253 -0.565728136623 0.025570877752 -0.005338662970
0.364896000000 0.000000000000 0.000000000000 0.446084981341 -0.791753147959 0.448235891045 -0.788695343558 0.005474439465 -0.013426330082
0.371894000000 0.000000000000 0.000000000000 0.118302319851 -0.900226337438 0.121901665338 -0.898181918283 -0.013928348426 -0.005740873353
0.378892000000 0.000000000000 0.000000000000 -0.225990745493 -0.878228767209 -0.220767978300 -0.878653573101 -0.021995461155 0.013221693005
0.385890000000 0.000000000000 0.000000000000 -0.535133501282 -0.729587229514 -0.531303405061 -0.732595789592 -0.013804282684 0.031567030537
0.392888000000 0.000000000000 0.000000000000 -0.766258598281 -0.478249683133 -0.764137548612 -0.482318627470 0.005631344642 0.038144586300
0.399886000000 0.000000000000 0.000000000000 -0.888617162864 -0.159967209179 -0.887734696774 -0.163670497010 0.025234640056 0.028233580012
0.406884000000 0.000000000000 0.000000000000 -0.884660972832 0.181315543518 -0.884247296082 0.178223611039 0.032716801220 0.005785789654
0.413882000000 0.000000000000 0.000000000000 -0.753300147319 0.497635274633 -0.753900605045 0.493861403766 0.022656916425 -0.017183792658
0.420880000000 0.000000000000 0.000000000000 -0.512670227752 0.742440439375 -0.515351774167 0.738233529154 -0.000974889485 -0.028812143809
0.427878000000 0.000000000000 0.000000000000 -0.198849374534 0.878546106517 -0.204346233709 0.875632137871 -0.026679954230 -0.022452613191
0.434876000000 0.000000000000 0.000000000000 0.141707991283 0.887685284501 0.134406578816 0.887879389800 -0.042481004491 -0.001844521357
0.441874000000 0.000000000000 0.000000000000 0.460017008101 0.771048872117 0.453900097788 0.774353008411 -0.041071360857 0.022304732398
0.448872000000 0.000000000000 0.000000000000 0.712568108583 0.545184793401 0.708619956256 0.550542370326 -0.025856540953 0.037835219829
0.455870000000 0.000000000000 0.000000000000 0.864230287384 0.241930181883 0.862517991524 0.247813263050 -0.006280267932 0.038054190108
0.462868000000 0.000000000000 0.000000000000 0.892309221165 -0.096785535726 0.892188679269 -0.091306015337 0.005829734614 0.024820750524
0.469866000000 0.000000000000 0.000000000000 0.791314834062 -0.422410452921 0.793435423422 -0.416962858977 0.003715120598 0.006924889388
0.476864000000 0.000000000000 0.000000000000 0.575826865927 -0.685802790914 0.580291675177 -0.681792451639 -0.012268038038 -0.003613239328
0.483862000000 0.000000000000 0.000000000000 0.273610606080 -0.851088905627 0.284417901474 -0.847192211905 -0.032779984023 -0.000620750726
0.490860000000 0.000000000000 0.000000000000 -0.056282125627 -0.890630780425 -0.050378502000 -0.890939338957 -0.047712091207 0.016063926765
0.497858000000 0.000000000000 0.000000000000 -0.381894647649 -0.805430557139 -0.377534124046 -0.807989879040 -0.049751792332 0.039348458899
0.504856000000 0.000000000000 0.000000000000 -0.653316871337 -0.606042292799 -0.650183639431 -0.610374469131 -0.037879241328 0.059854924713
0.511854000000 0.000000000000 0.000000000000 -0.832185194978 -0.320404019402 -0.830451104609 -0.324814982277 -0.017145829323 0.069242930605
0.518852000000 0.000000000000 0.000000000000 -0.891890894598 0.012356299082 -0.891791895981 0.006998476572 0.002650611580 0.065145253390
0.525850000000 0.000000000000 0.000000000000 -0.822739069600 0.343249016321 -0.824061314257 0.338914903177 0.014130728678 0.052462056986
0.532848000000 0.000000000000 0.000000000000 -0.635380294142 0.625434580977 -0.638208831995 0.620621269550 0.014191086905 0.038914036954
0.539846000000 0.000000000000 0.000000000000 -0.357081829854 0.816377081851 -0.361350397450 0.812491906183 0.006664324767 0.031745728110
0.546844000000 0.000000000000 0.000000000000 -0.027500485059 0.890059441649 -0.034135434541 0.886813664525 -0.002119142965 0.034344857614
0.553842000000 0.000000000000 0.000000000000 0.305603577099 0.835458606025 0.297408367122 0.835588409587 -0.005100277888 0.043961038551
0.560840000000 0.000000000000 0.000000000000 0.594602060575 0.660169305401 0.586259260966 0.665184375065 0.001446761092 0.055306756563
0.567838000000 0.000000000000 0.000000000000 0.796447958472 0.390370830624 0.791515209261 0.398918717963 0.015560857102 0.060137217087
0.574836000000 0.000000000000 0.000000000000 0.883422633419 0.065463129765 0.882291124989 0.075287441317 0.031293405922 0.055389193238
0.581834000000 0.000000000000 0.000000000000 0.843220438093 -0.267435554464 0.845667458602 -0.258492067102 0.041452804485 0.042178518505
0.588832000000 0.000000000000 0.000000000000 0.683160365175 -0.561330627828 0.687853428730 -0.553565203331 0.042148439879 0.026479279697
0.595830000000 0.000000000000 0.000000000000 0.425340491690 -0.774582765790 0.433171456437 -0.767728759417 0.033399425712 0.015026766566
0.602828000000 0.000000000000 0.000000000000 0.107013540616 -0.877308784537 0.117673200771 -0.872995771675 0.021162397483 0.014232525536
0.609826000000 0.000000000000 0.000000000000 -0.226087981264 -0.853848362791 -0.214215879855 -0.854976623559 0.013847474831 0.023233947043
0.616824000000 0.000000000000 0.000000000000 -0.527285283428 -0.706551533412 -0.518254518171 -0.713548996024 0.017459996748 0.036384381021
0.623822000000 0.000000000000 0.000000000000 -0.750487825943 -0.458101442428 -0.746406074189 -0.468667609006 0.032147928478 0.043136869964
0.630820000000 0.000000000000 0.000000000000 -0.864721227712 -0.146344771930 -0.866065321700 -0.156122736666 0.051080716214 0.038145639816
0.637818000000 0.000000000000 0.000000000000 -0.856503604363 0.183376618724 -0.860081944480 0.177834499577 0.064924955944 0.019964816046
0.644816000000 0.000000000000 0.000000000000 -0.727932192882 0.485795966955 -0.731136996184 0.481779612975 0.065520070349 -0.004996720772
0.651814000000 0.000000000000 0.000000000000 -0.497396107031 0.721775216301 -0.500212399281 0.717182526363 0.050338908858 -0.025585576966
0.658812000000 0.000000000000 0.000000000000 -0.193964576876 0.856808418971 -0.199424453387 0.851085239067 0.027092157486 -0.032622678978
0.665810000000 0.000000000000 0.000000000000 0.140084951178 0.867480569567 0.130810703773 0.865209108351 0.006278176297 -0.024319058277
0.672808000000 0.000000000000 0.000000000000 0.453405778071 0.751460744605 0.443704300452 0.754861659998 -0.002417153873 -0.006726099246
0.679806000000 0.000000000000 0.000000000000 0.699779599624 0.527592645157 0.693549961480 0.535339045771 0.003246293708 0.009404989328
0.686804000000 0.000000000000 0.000000000000 0.844783258966 0.229650739255 0.842620008205 0.238109328595 0.018209453787 0.014202613389
0.693802000000 0.000000000000 0.000000000000 0.869110964482 -0.099297400388 0.868983943168 -0.091683496900 0.031312887994 0.004605097930
0.700800000000 0.000000000000 0.000000000000 0.770417927536 -0.414591850104 0.771418171792 -0.407442018283 0.033161453373 -0.013835338414
0.707798000000 0.000000000000 0.000000000000 0.561464818229 -0.671334825056 0.565364402816 -0.663199045045 0.019993375515 -0.030492694918
0.714796000000 0.000000000000 0.000000000000 0.270610517524 -0.832020579621 0.279087934587 -0.825224968417 -0.003369514801 -0.035786370576
0.721794000000 0.000000000000 0.000000000000 -0.058479350833 -0.871871003347 -0.047199433754 -0.869586103808 -0.026226328645 -0.026004845589
0.728792000000 0.000000000000 0.000000000000 -0.378639626621 -0.786393733181 -0.366302068582 -0.789731677657 -0.039564674777 -0.004916361570
0.735790000000 0.000000000000 0.000000000000 -0.642549220431 -0.588112004183 -0.633300886300 -0.597492429665 -0.038070400704 0.018323697836
0.742788000000 0.000000000000 0.000000000000 -0.814253932603 -0.307593862281 -0.810041012546 -0.319451370497 -0.024886635836 0.034068385884
0.749786000000 0.000000000000 0.000000000000 -0.869969006570 0.015535479869 -0.870760298835 0.003875518522 -0.008458059007 0.036858240965
0.756784000000 0.000000000000 0.000000000000 -0.802141403802 0.337418141676 -0.807414675549 0.327157098097 0.002467497573 0.029020191915
0.763782000000 0.000000000000 0.000000000000 -0.618309529870 0.612688124268 -0.626336752954 0.604667510202 0.002379696066 0.017089401858
0.770780000000 0.000000000000 0.000000000000 -0.344454349796 0.797836708858 -0.355983243071 0.793215139848 -0.007723399440 0.009747777759
0.777778000000 0.000000000000 0.000000000000 -0.022342186563 0.867950597675 -0.035756801507 0.867508264544 -0.022165095532 0.012439066468
0.784776000000 0.000000000000 0.000000000000 0.300219296494 0.812216650386 0.288729845379 0.817503259816 -0.032757059748 0.025689560588
0.791774000000 0.000000000000 0.000000000000 0.578900431876 0.642661470177 0.570653935014 0.652396018378 -0.033795467989 0.043639654991
0.798772000000 0.000000000000 0.000000000000 0.775743117463 0.382159557834 0.771607609772 0.394398712508 -0.024468906864 0.060306252568
0.805770000000 0.000000000000 0.000000000000 0.862394619131 0.066951977540 0.863090826129 0.079362578229 -0.007572635583 0.069093302518
0.812768000000 0.000000000000 0.000000000000 0.825678895813 -0.259029284807 0.829818917498 -0.247579085957 0.009639533737 0.067637364639
0.819766000000 0.000000000000 0.000000000000 0.670631994067 -0.547643160025 0.677126700916 -0.538587563760 0.021419255710 0.057882187643
0.826764000000 0.000000000000 0.000000000000 0.418286620267 -0.758015721767 0.427798951542 -0.750591729933 0.024751719106 0.046416058693
0.833762000000 0.000000000000 0.000000000000 0.105850921699 -0.859371595781 0.117956684813 -0.854842352192 0.020576841716 0.038555017719
0.840760000000 0.000000000000 0.000000000000 -0.222369825458 -0.836430086188 -0.207942116981 -0.836857970743 0.013636800587 0.038887923756
0.847758000000 0.000000000000 0.000000000000 -0.517810128025 -0.692660327281 -0.504138804720 -0.699395203282 0.010419682040 0.046634864335
0.854756000000 0.000000000000 0.000000000000 -0.737077220956 -0.449299604651 -0.728473800607 -0.461690217983 0.015541338149 0.057688983145
0.861754000000 0.000000000000 0.000000000000 -0.850087998494 -0.142588119041 -0.847133003971 -0.156484765253 0.029729104561 0.064625167929
0.868752000000 0.000000000000 0.000000000000 -0.840240417794 0.183571691706 -0.842611022097 0.169569693588 0.048642178495 0.063129922358
0.875750000000 0.000000000000 0.000000000000 -0.711463123041 0.480845720855 -0.717830312888 0.469304995294 0.064987086195 0.051054060993
0.882748000000 0.000000000000 0.000000000000 -0.480791271732 0.709671090507 -0.490838580755 0.700278472393 0.073800333742 0.032912349305
0.889746000000 0.000000000000 0.000000000000 -0.183323549469 0.836048868877 -0.197694652104 0.830414917877 0.072251296422 0.014132508232
0.896744000000 0.000000000000 0.000000000000 0.139433739441 0.844149073112 0.121487140595 0.844832919852 0.062610378105 0.001658186283
0.903742000000 0.000000000000 0.000000000000 0.442699559988 0.731125838256 0.425850052365 0.741284475071 0.051520355709 -0.000325994896
0.910740000000 0.000000000000 0.000000000000 0.682729493161 0.514473762208 0.673157296935 0.530584051438 0.047541942574 0.005709560906
0.917738000000 0.000000000000 0.000000000000 0.824149178201 0.222688105163 0.823192094143 0.239814532989 0.052803118150 0.010999768619
0.924736000000 0.000000000000 0.000000000000 0.845362977177 -0.098968086305 0.850131249745 -0.085406768862 0.064372502614 0.009713196560
0.931734000000 0.000000000000 0.000000000000 0.747429504513 -0.403461887395 0.753839442034 -0.395087982905 0.075468766834 -0.003011430125
0.938732000000 0.000000000000 0.000000000000 0.545645061933 -0.649621377694 0.552052164357 -0.641750721908 0.077943446475 -0.022809469776
0.945730000000 0.000000000000 0.000000000000 0.267701804474 -0.806066557516 0.278471681149 -0.796855135353 0.068855849186 -0.041920835804
0.952728000000 0.000000000000 0.000000000000 -0.048809263614 -0.848870232152 -0.033702371751 -0.844355297010 0.050810571168 -0.052713199452
0.959726000000 0.000000000000 0.000000000000 -0.361482885475 -0.771346832220 -0.344036601800 -0.775381649855 0.030680073606 -0.052164764432
0.966724000000 0.000000000000 0.000000000000 -0.624157348304 -0.581715745797 -0.611276757740 -0.592682299621 0.017376358571 -0.041955639727
0.973722000000 0.000000000000 0.000000000000 -0.796707128973 -0.306613519926 -0.790401224247 -0.321044865853 0.014185673880 -0.029540979017
0.980720000000 0.000000000000 0.000000000000 -0.853048032476 0.012636822350 -0.851883930795 -0.002318366523 0.018921986476 -0.021043825558
0.987718000000 0.000000000000 0.000000000000 -0.787096528381 0.327610569989 -0.789178390822 0.313747495254 0.025701512558 -0.020836416487
0.994716000000 0.000000000000 0.000000000000 -0.608880887165 0.595363394168 -0.614948350189 0.581974419622 0.028636768666 -0.028054696635
1.001714000000 0.000000000000 0.000000000000 -0.344931698263 0.778999580326 -0.355624455847 0.766927573964 0.022471091645 -0.037403831347
