# GHZ S RI R 50.000000000000
0.001000000000 0.016179985154 -0.000609575857 0.996904039052 -0.054710778414 0.991325858241 -0.060098036076 0.016742407507 0.000034252817
0.007998000000 -0.000718337596 -0.016434602317 0.873074142419 -0.426444797162 0.871858240917 -0.428951796847 -0.000344211129 -0.016017855570
0.014996000000 -0.009235258213 -0.020927006180 0.641550899570 -0.717169296591 0.637994772637 -0.720213273325 -0.009746245395 -0.019817988954
0.021994000000 -0.021665397756 -0.021976086180 0.320583382225 -0.902086292917 0.316525249250 -0.902959718165 -0.021922011611 -0.020310510159
0.028992000000 -0.034094775790 -0.013951729561 -0.042252960055 -0.953548840466 -0.045281555243 -0.952685670261 -0.033649284018 -0.011931826882
0.035990000000 -0.037889602477 0.000998781092 -0.399328455987 -0.864107010951 -0.400823942956 -0.862673150032 -0.036851970587 0.002593840259
0.042988000000 -0.030248402269 0.014953638833 -0.694778093204 -0.649347448099 -0.695504575995 -0.647998152180 -0.028988396692 0.015727080287
0.049986000000 -0.014822764376 0.018760495674 -0.888002794515 -0.336233755811 -0.888349605684 -0.335213214115 -0.014432514254 0.018826555298
0.056984000000 -0.001428042017 0.009847480047 -0.946870768263 0.025783720089 -0.946865118226 0.027341152678 -0.002260392991 0.009941538652
0.063982000000 0.001172843713 -0.006695890442 -0.865280668835 0.382447610405 -0.864325048182 0.383461274641 -0.000667377005 -0.005712933299
0.070980000000 -0.010110173649 -0.020636424479 -0.655092304895 0.680175550048 -0.653543163755 0.680899756002 -0.011969908612 -0.018025759984
0.077978000000 -0.029007304935 -0.021981385841 -0.348271540543 0.876320486934 -0.346500600236 0.876232705133 -0.029862891448 -0.018071822112
0.084976000000 -0.043966462292 -0.008581582333 0.009853099932 0.941114147417 0.010657980467 0.940908224391 -0.043117368674 -0.004408231502
0.091974000000 -0.045016873537 0.011973685552 0.364991709526 0.865832899316 0.365806344819 0.864938381925 -0.042635761317 0.015322125810
0.098972000000 -0.030934673023 0.027106568218 0.664648349210 0.662162604610 0.665077590299 0.661902576300 -0.028113128076 0.029102974216
0.105970000000 -0.010404675402 0.027319146558 0.864827230992 0.362336648898 0.865496341943 0.361025458301 -0.008066991764 0.027976494864
0.112968000000 0.003689460148 0.012315274862 0.936765420572 0.008435360348 0.936462118072 0.006989358269 0.004834541390 0.012444878535
0.119966000000 0.001813581773 -0.008287512139 0.869192631115 -0.346882948653 0.868701377043 -0.347740896785 0.001924297870 -0.007584660081
0.126964000000 -0.014914635232 -0.021112839439 0.671415763794 -0.650111993505 0.670854755485 -0.650237816876 -0.015148297811 -0.019109226914
0.133962000000 -0.036325846750 -0.017571458496 0.374210482588 -0.854310218462 0.373567508920 -0.854209267239 -0.035706005854 -0.014775533447
0.140960000000 -0.048840701036 0.000308459013 0.023426778752 -0.930335715660 0.023295836319 -0.930450486973 -0.047122577950 0.003241732442
0.147958000000 -0.044926248707 0.021810180250 -0.328719984254 -0.869377852870 -0.328678125309 -0.869486900234 -0.042418339179 0.023870987052
0.154956000000 -0.027689536724 0.034015299277 -0.632152508816 -0.680509743963 -0.632431112154 -0.680097633608 -0.025161685436 0.034900676805
0.161954000000 -0.007649530007 0.030533209682 -0.842308463018 -0.391042498283 -0.842178381623 -0.390592035099 -0.005915955425 0.030361899106
0.168952000000 0.003253561367 0.014379034682 -0.927165551916 -0.042793744032 -0.926910381141 -0.042521521937 0.003984132291 0.014334679367
0.175950000000 -0.000892294472 -0.004061961561 -0.872949639569 0.310888936553 -0.872565296659 0.311022543065 -0.000590281567 -0.003334014693
0.182948000000 -0.016614832318 -0.012775396147 -0.689614348670 0.616732684719 -0.688989562597 0.616812667204 -0.015847247143 -0.011851748940
0.189946000000 -0.033335183315 -0.007909426852 -0.404892244022 0.829777974797 -0.404920896556 0.830244456315 -0.031664514918 -0.007487901128
0.196944000000 -0.041578829439 0.007430051867 -0.061963087890 0.920172516839 -0.061507609507 0.920798271576 -0.039806751983 0.005564280578
0.203942000000 -0.036543392889 0.023977172760 0.290359606637 0.874865348396 0.290528157036 0.875109517995 -0.036722869530 0.019770256608
0.210940000000 -0.021610575367 0.032529381396 0.598720395481 0.700477728350 0.599396652557 0.700346661746 -0.025836526259 0.027151360681
0.217938000000 -0.004630673860 0.028550299293 0.819015512107 0.421394940805 0.819233304863 0.421119444733 -0.013898207772 0.024788409847
0.224936000000 0.004848499714 0.014204418859 0.916791809040 0.080227727090 0.916636418894 0.079792323520 -0.008227407278 0.015485515347
0.231934000000 0.002573769570 -0.002856345172 0.877305844934 -0.272495390687 0.877366988996 -0.272106618966 -0.010943302004 0.004933251718
0.238932000000 -0.010238085702 -0.014508839848 0.708213854837 -0.583364949235 0.708493160091 -0.583301448886 -0.020782703404 -0.000589460449
0.245930000000 -0.028105189777 -0.014923828248 0.434769215698 -0.806613350928 0.434459831417 -0.807041443258 -0.032427946602 0.002261103000
0.252928000000 -0.042355609179 -0.003631331070 0.097681478574 -0.910527397288 0.097060612077 -0.910019735064 -0.039955612138 0.012523379152
0.259926000000 -0.046656184204 0.014553522148 -0.253745800745 -0.879139532817 -0.253674620178 -0.878507505128 -0.039883850981 0.026127392434
0.266924000000 -0.038513034801 0.031943559604 -0.566356065846 -0.717476721728 -0.565564428480 -0.717348086628 -0.031912628744 0.037461301803
0.273922000000 -0.020718070822 0.040703893857 -0.795266190518 -0.449117484959 -0.793937098542 -0.450558890916 -0.018184733695 0.042315687228
0.280920000000 -0.001435481166 0.036384471286 -0.905425297452 -0.114485589350 -0.904487811710 -0.116766086209 -0.004603239549 0.037821175786
0.287918000000 0.010506329128 0.020874843702 -0.880378324360 0.235948073834 -0.880387538011 0.233687981111 0.002998832134 0.026660171832
0.294916000000 0.009428302379 0.001768081390 -0.724993814556 0.550754762642 -0.725599554080 0.548568652279 0.001260644798 0.014093621787
0.301914000000 -0.004023765095 -0.011362471060 -0.462993266679 0.783212891121 -0.464449181322 0.781008996970 -0.008431828796 0.006605290746
0.308912000000 -0.022992693070 -0.011727127758 -0.132769114970 0.899184130454 -0.135663527443 0.897446176666 -0.020336804383 0.008905871514
0.315910000000 -0.036725241268 0.001541531119 0.217058474328 0.881661136041 0.212853446510 0.881349456361 -0.027130683260 0.019928178123
0.322908000000 -0.037094867934 0.021113752021 0.533583707871 0.733778481965 0.529668995220 0.735423807419 -0.023343344384 0.033506615856
0.329906000000 -0.023523146834 0.035104717208 0.770414670910 0.476267321029 0.768145432618 0.479674009634 -0.010118767665 0.040790530828
0.336904000000 -0.004332213466 0.035589043879 0.892064245544 0.149306024435 0.891143356854 0.153128566582 0.005497936250 0.036576670410
0.343902000000 0.009266081742 0.022254200732 0.881653747890 -0.198344417815 0.881799677504 -0.194550238544 0.013995768668 0.021990200465
0.350900000000 0.008553668446 0.002836375766 0.741218720102 -0.516377733121 0.742900803980 -0.512038237169 0.009426188151 0.004863667743
0.357898000000 -0.006951526466 -0.009871288075 0.490799458665 -0.757877036699 0.494019059010 -0.754493810643 -0.006751442656 -0.004491775190
0.364896000000 -0.028182321244 -0.006839247736 0.166674455507 -0.886585886445 0.172031746612 -0.884842392123 -0.025721616916 0.000747307938
0.371894000000 -0.041445650117 0.011794510756 -0.180883803370 -0.881912799363 -0.175677564389 -0.882623882774 -0.036223592011 0.018352517565
0.378892000000 -0.038392908072 0.035352779401 -0.500096050308 -0.746531417621 -0.495116098872 -0.750124283291 -0.031863719249 0.039441592544
0.385890000000 -0.019661308675 0.051081985519 -0.742872055387 -0.502616669192 -0.740237025411 -0.507216506820 -0.014182631466 0.052122988073
0.392888000000 0.004346356154 0.050218299314 -0.876714729503 -0.186576725288 -0.875831029478 -0.191336265768 0.007047918477 0.049724284385
0.399886000000 0.020715729418 0.033847517298 -0.882780892601 0.157904704335 -0.883245672742 0.152984520719 0.020654519226 0.033852785683
0.406884000000 0.020667916457 0.012136941514 -0.757967111721 0.480090789400 -0.760200414283 0.475181839466 0.019757131281 0.014200319238
0.413882000000 0.005825455889 -0.001820111945 -0.519276641179 0.730909898882 -0.524187367456 0.726759012598 0.006305203841 0.001490338806
0.420880000000 -0.013309499679 0.000206814526 -0.203347248896 0.872236670383 -0.210307507980 0.870372898064 -0.010897958823 0.002016358580
0.427878000000 -0.023674430043 0.015167453309 0.140801122594 0.882972296235 0.133453597213 0.884054780187 -0.021649774395 0.013366924883
0.434876000000 -0.019279563779 0.032792686064 0.462300502625 0.763943311445 0.455815278463 0.768078378815 -0.020991393973 0.027561275989
0.441874000000 -0.002907095509 0.041390489133 0.716012169494 0.532919162807 0.711679114837 0.539458787586 -0.011432866450 0.035528855752
0.448872000000 0.015199182250 0.034999174129 0.863837439249 0.223363416729 0.862540221400 0.231166677480 -0.000556403896 0.033886360546
0.455870000000 0.023865403402 0.017032435943 0.884223281689 -0.119929202057 0.885658465521 -0.112188477620 0.004560291137 0.025097017451
0.462868000000 0.017512935183 -0.002522692646 0.772951535170 -0.444551229103 0.777000775577 -0.438233525336 0.000925380468 0.015836621415
0.469866000000 -0.000966704195 -0.012543167119 0.546676433165 -0.703109018746 0.552927084855 -0.698860831444 -0.009322959666 0.013027840758
0.476864000000 -0.021215447753 -0.008010803381 0.240501794035 -0.856190533196 0.247086814072 -0.855037015906 -0.018782400771 0.018550411820
0.483862000000 -0.033411613544 0.008431596761 -0.100582651142 -0.882594017794 -0.093684742914 -0.884152511957 -0.022152955875 0.029674867847
0.490860000000 -0.031966330993 0.028395163048 -0.425976114778 -0.779580335438 -0.419980367508 -0.782666263762 -0.017185948567 0.041000623414
0.497858000000 -0.018625436556 0.042269676474 -0.688603619155 -0.560616045186 -0.684276666530 -0.565794896629 -0.006451885670 0.047125119514
0.504856000000 -0.000411234818 0.044305358051 -0.849050642925 -0.258642265418 -0.846948842975 -0.265657369785 0.006402487652 0.045813989700
0.511854000000 0.013837264856 0.034934864163 -0.883834686317 0.081989378480 -0.884127982165 0.073806144590 0.015370864358 0.037580671102
0.518852000000 0.018835298139 0.019944811462 -0.786792585452 0.409934762287 -0.790565852114 0.402413626614 0.017965971313 0.026232527154
0.525850000000 0.013469119409 0.006818500765 -0.573503587077 0.676240791718 -0.578844795551 0.670816544715 0.013851245353 0.016870929286
0.532848000000 0.002628446511 0.001274565753 -0.274638153510 0.842102212027 -0.282346888721 0.838919883637 0.006340074750 0.011786793139
0.539846000000 -0.007633896517 0.004793889337 0.063388513729 0.882709046690 0.054850281060 0.882402038422 -0.001588347864 0.012394698214
0.546844000000 -0.011527160930 0.013890031372 0.392087653391 0.793010899243 0.382819571985 0.796052795705 -0.006722533370 0.017073354203
0.553842000000 -0.007179709108 0.022922998941 0.662252505922 0.585417485276 0.654611248960 0.592420891378 -0.007576495582 0.023996857263
0.560840000000 0.003675198940 0.026777548893 0.834131115755 0.290937566644 0.829097683852 0.301136473657 -0.003288686922 0.028706750818
0.567838000000 0.014906983207 0.021222248947 0.880883189800 -0.046263490878 0.880653968942 -0.034612515491 0.003113582480 0.029145496132
0.574836000000 0.020175236512 0.008824196569 0.796857981728 -0.376049450358 0.800738164822 -0.364454709115 0.007410890410 0.024938206479
0.581834000000 0.015826767054 -0.004563345801 0.594832230869 -0.649037470661 0.603189122215 -0.638834416647 0.007707194564 0.019000537319
0.588832000000 0.003214570042 -0.012289196622 0.305611138668 -0.825288874020 0.317339408088 -0.818713808496 0.003431508481 0.014793209337
0.595830000000 -0.011993879747 -0.009164711867 -0.028729184059 -0.879105602928 -0.014236238360 -0.877218797902 -0.003132091990 0.015742225853
0.602828000000 -0.021168280020 0.004400044883 -0.358665430015 -0.802683732898 -0.344327933593 -0.806688097591 -0.007147094510 0.022561236396
0.609826000000 -0.018197125869 0.021319874216 -0.634033105155 -0.607457070360 -0.623597906421 -0.616979571155 -0.004543747421 0.030880095796
0.616824000000 -0.004089359816 0.031968352867 -0.815116965444 -0.322315721891 -0.810277730635 -0.334144903459 0.003859781905 0.035715368735
0.623822000000 0.013945424699 0.030433147715 -0.875303579751 0.008525372725 -0.875169448795 -0.003941704653 0.014025314186 0.033683685791
0.630820000000 0.026222736454 0.017258917151 -0.806783330093 0.337778192600 -0.810746041285 0.325862329797 0.020751313075 0.025051474558
0.637818000000 0.025570374155 -0.000588751285 -0.620216456573 0.617239810917 -0.627739415621 0.606723989986 0.019822711497 0.014291470224
0.644816000000 0.012549002803 -0.012393375874 -0.341432886984 0.805207977490 -0.352633553750 0.798098955639 0.011711928868 0.007525299981
0.651814000000 -0.004576064996 -0.010538759407 -0.011295020613 0.874313848096 -0.025393872603 0.872150115645 0.001431188125 0.008960042163
0.658812000000 -0.014748739437 0.003800408975 0.320117598724 0.812668034749 0.306425250054 0.816620012115 -0.004155429705 0.017411509644
0.665810000000 -0.011286845970 0.021146657211 0.602583622577 0.630145108610 0.592250109962 0.640201389101 -0.002049387995 0.027193298084
0.672808000000 0.003436373439 0.031247966128 0.794364126512 0.355884259647 0.789289511601 0.368037649208 0.006243546461 0.032693527445
0.679806000000 0.021286232556 0.027799974557 0.869694137167 0.030165695815 0.869063853638 0.043073412651 0.015878908804 0.030890157501
0.686804000000 0.031501679914 0.012699464717 0.816857406530 -0.300071317203 0.820605399897 -0.287225857849 0.020649685728 0.022924887623
0.693802000000 0.027497301761 -0.004798510575 0.643632701726 -0.585811475575 0.652603598718 -0.573857411274 0.018341749530 0.014849823382
0.700800000000 0.012216104801 -0.014160941519 0.374668433314 -0.784425258699 0.388284766860 -0.778018416199 0.010880897468 0.011479047649
0.707798000000 -0.004723038902 -0.009467049445 0.050550706930 -0.866946743267 0.066135841711 -0.867351989954 0.003948904111 0.015438799264
0.714796000000 -0.013655167551 0.005020914912 -0.280209162379 -0.821322281617 -0.266782975433 -0.827852186232 0.001947463462 0.022853271101
0.721794000000 -0.009876313934 0.021122203576 -0.568956203017 -0.654679679361 -0.559236554765 -0.665154468881 0.006185098819 0.029251879212
0.728792000000 0.003420294432 0.029315638315 -0.773184976458 -0.392187407579 -0.768141466001 -0.404262296849 0.013578186292 0.030765696454
0.735790000000 0.017893986095 0.025838103976 -0.863915038882 -0.071466759385 -0.863262925224 -0.085455429103 0.019494992623 0.026874552694
0.742788000000 0.024822985241 0.013555049513 -0.827250818769 0.259288796571 -0.831484178255 0.245644342823 0.020560786465 0.019863710158
0.749786000000 0.020713439975 0.000949438528 -0.667480202827 0.552906783690 -0.676528624366 0.541491273667 0.017101738062 0.014609776813
0.756784000000 0.009612034823 -0.005030001673 -0.408556347432 0.764237168014 -0.422767303260 0.757423180438 0.011224511630 0.013321036724
0.763782000000 -0.001947876202 -0.001635805075 -0.088599622885 0.860967588710 -0.104849650721 0.860335889195 0.006502395713 0.015902715545
0.770780000000 -0.007932903760 0.008484910867 0.242784192595 0.829599401921 0.227322124891 0.835020590829 0.004555264191 0.020361489650
0.777778000000 -0.004490532332 0.019280503815 0.538204340124 0.676516015000 0.524494922270 0.687570103406 0.006065316414 0.024024773324
0.784776000000 0.005665753014 0.024135843256 0.752661251779 0.423688080075 0.744729842887 0.439023198408 0.008993825959 0.025184847791
0.791774000000 0.015740122997 0.020679171291 0.856587902968 0.108121864196 0.854795150523 0.125833600748 0.011624854625 0.024641536856
0.798772000000 0.020944827027 0.010888173319 0.833309680704 -0.224065451318 0.838443204935 -0.205985371772 0.012977549672 0.022895892475
0.805770000000 0.018775779918 0.000358417635 0.685940636667 -0.522689285801 0.698355661284 -0.507336780106 0.012755422588 0.020883254894
0.812768000000 0.010675841008 -0.006478474810 0.437566658234 -0.742606600017 0.454150073394 -0.732679487873 0.011705277482 0.019577308580
0.819766000000 0.000883273004 -0.006762303878 0.124752721732 -0.852638723323 0.143740824853 -0.848836180097 0.010879159282 0.018922945757
0.826764000000 -0.006347980539 -0.001005186390 -0.206629832489 -0.836760287279 -0.186961795428 -0.839385744234 0.010036428950 0.019570859301
0.833762000000 -0.008335846532 0.007821029757 -0.507156809940 -0.695535647886 -0.490267530249 -0.706299773180 0.010312193720 0.020453658195
0.840760000000 -0.004244740235 0.015444057463 -0.732139422698 -0.451900123163 -0.719667452836 -0.469182354654 0.011491538776 0.021434145941
0.847758000000 0.003723924638 0.018684461875 -0.847724060621 -0.141651724789 -0.843253123165 -0.162503965410 0.014384982871 0.021706650727
0.854756000000 0.012240170013 0.016282061266 -0.837254017590 0.189014627155 -0.841727259005 0.168074929943 0.017942174726 0.019798789175
0.861754000000 0.017609027790 0.009628082046 -0.704127378146 0.490138835798 -0.715339444860 0.473151674563 0.021311128819 0.014542895053
0.868752000000 0.018101754395 0.002072129862 -0.466058631433 0.718759035883 -0.483335475026 0.707206733798 0.020731512271 0.007914175981
0.875750000000 0.013973867523 -0.003673307312 -0.161751292605 0.840897720028 -0.181010539909 0.836667904845 0.017198610338 0.001684867793
0.882748000000 0.008787768105 -0.004500487929 0.167720035229 0.839249474948 0.147576262423 0.841970887444 0.010382679106 -0.001385503607
0.889746000000 0.006242762726 -0.000882228748 0.471851025984 0.713366552857 0.452481812175 0.723452950179 0.002581296580 -0.000393461949
0.896744000000 0.008776662882 0.003362541502 0.705624432480 0.482044706611 0.691597692402 0.499474319879 -0.002168052963 0.005463245590
0.903742000000 0.015680554818 0.004096635093 0.834686085453 0.179734266287 0.828805557935 0.201914490421 -0.002195486654 0.012059020171
0.910740000000 0.022030104622 -0.001333208063 0.839917215538 -0.148732057647 0.841890456630 -0.125068211842 0.001229778854 0.017019538783
0.917738000000 0.023268719191 -0.011393857989 0.721543423987 -0.454359770066 0.731899061690 -0.433873647747 0.006290759003 0.018284201924
0.924736000000 0.016967647028 -0.020731049750 0.496698561465 -0.692549933238 0.514224391686 -0.675833981599 0.009444680590 0.016349716030
0.931734000000 0.004795900990 -0.023269424400 0.199155592196 -0.828027922199 0.222236873505 -0.819599186204 0.010405823622 0.014394317576
0.938732000000 -0.006374716326 -0.016476001058 -0.128116141638 -0.840988712482 -0.102322856928 -0.842812991398 0.009978463833 0.014380768042
0.945730000000 -0.010260505949 -0.002648420932 -0.435908431413 -0.729798144123 -0.413241350562 -0.742786035086 0.010236970804 0.015686848831
0.952728000000 -0.004208620189 0.010217718684 -0.678135646468 -0.510130601245 -0.663985576895 -0.530783263212 0.011748351214 0.017925768665
0.959726000000 0.009081385843 0.016058821339 -0.819757962259 -0.216411921927 -0.814794620415 -0.239658672967 0.016356637000 0.018423612031
0.966724000000 0.022458335611 0.012344558745 -0.840383544475 0.108896859767 -0.842704066669 0.085609410252 0.020897945316 0.016286436091
0.973722000000 0.029432384932 0.001332732512 -0.736972515975 0.416977085597 -0.747132712138 0.395413977572 0.023659979624 0.011822402196
0.980720000000 0.026518326854 -0.010265344928 -0.525014083885 0.663999174768 -0.543641215295 0.646394870927 0.023269090762 0.007114418411
0.987718000000 0.017576879562 -0.014872906859 -0.236897008067 0.812274682425 -0.260992509001 0.803948103049 0.019990930895 0.003200188962
0.994716000000 0.008790907174 -0.010820809276 0.086805671029 0.841574192124 0.061910375169 0.844403737281 0.016444813024 0.002677341642
1.001714000000 0.007684440997 -0.002259364212 0.398152346910 0.746092019901 0.377382419038 0.758393954819 0.013411558628 0.003202019385
