# GHZ S RI R 50.000000000000
0.001000000000 0.038945616196 -0.005645077250 0.921470378107 -0.294524002815 0.941138379287 -0.302867223765 0.040007307541 -0.002952281703
0.007998000000 -0.013118176266 -0.018635506787 -0.670921293307 -0.618036079051 -0.671312802736 -0.617079578300 -0.011363607506 -0.017439424759
0.014996000000 -0.022639860600 -0.020148366782 -0.229199681121 0.853038947515 -0.226777562047 0.852941210669 -0.023178793255 -0.021260617781
0.021994000000 -0.013846462385 -0.020514089702 0.844350518306 -0.185120842617 0.843455494862 -0.187045026057 -0.014171102926 -0.018650607087
0.028992000000 -0.029801691278 -0.001111235251 -0.542138425366 -0.655633532564 -0.542329938061 -0.654714751502 -0.026812780851 -0.001039136154
0.035990000000 -0.049491137564 -0.023029506771 -0.327093300561 0.771703677486 -0.328094676262 0.770724385656 -0.050278223230 -0.025167589973
0.042988000000 -0.018488021063 -0.025495803603 0.826385745071 -0.061382661139 0.826507398268 -0.059713755679 -0.030461411324 -0.020089607576
0.049986000000 -0.127961160160 0.079944365510 -0.420512698822 -0.692301432376 -0.418695281046 -0.693631663606 -0.111779652938 0.097639394171
0.056984000000 0.082568060251 0.044195312388 -0.433879922188 0.681741600954 -0.434539544709 0.680988548392 0.091779860968 0.029633445713
0.063982000000 0.002258344833 -0.015031668587 0.803487870216 0.070546613372 0.803196583010 0.071367688788 -0.005282658141 -0.017447478746
0.070980000000 0.003463813105 -0.022580778310 -0.301724070021 -0.739171709031 -0.301162000895 -0.739091980576 0.002357106984 -0.019661410566
0.077978000000 -0.036459433085 -0.039433694023 -0.514745076814 0.600326250528 -0.514860088573 0.599373611210 -0.038259489285 -0.032048066416
0.084976000000 -0.020790695890 -0.022419538600 0.762741965132 0.181360986401 0.762301166022 0.182228642081 -0.006147309261 -0.022239322513
0.091974000000 -0.051772194802 0.014169012979 -0.186243916269 -0.752616360935 -0.185107101848 -0.752056920242 -0.065749389459 -0.013941671260
0.098972000000 -0.106749210696 -0.101062759774 -0.564456016791 0.504266790327 -0.565522606155 0.502188648979 -0.142283208416 -0.051985023995
0.105970000000 -0.095789540311 0.223514288633 0.672484121764 0.292548093047 0.672790451147 0.293500003961 -0.042485286759 0.241344088419
0.112968000000 0.100579897778 -0.006479053297 -0.033340473367 -0.756633804103 -0.032361247372 -0.756245818295 0.107464950627 -0.011657573256
0.119966000000 -0.002354671877 0.010351843051 -0.652353556768 0.384277909797 -0.652366972173 0.383153430754 0.031509606005 -0.018053859033
0.126964000000 0.027372425661 -0.029568160009 0.636179342601 0.399505094512 0.634745011149 0.400140306137 -0.002081438847 -0.049086370418
0.133962000000 -0.031779828047 -0.009974447770 0.063293524535 -0.742264534585 0.064926951690 -0.741585933176 -0.034370862028 -0.018753286450
0.140960000000 -0.030074242355 -0.055822128594 -0.680968995240 0.282706347430 -0.681347216380 0.280836592980 -0.044158285114 -0.055033588409
0.147958000000 0.006251734268 -0.023785630211 0.560445336830 0.465922151867 0.558696322294 0.466754553101 -0.046293966974 -0.040899143642
0.154956000000 -0.266867831973 -0.049037456996 0.149602695744 -0.664301240405 0.152027374016 -0.664095473455 -0.268380208077 0.058772937063
0.161954000000 0.023773311873 0.272368968642 -0.677209280499 0.110324854649 -0.677232140557 0.109847290214 0.109520833308 0.252987414702
0.168952000000 0.064146653480 -0.013565164073 0.433413360529 0.576546480301 0.432618979820 0.576547227336 0.064206816563 -0.032027507763
0.175950000000 0.041011530929 0.025431254398 0.303181218297 -0.650270776750 0.304068193713 -0.649699449089 0.051449541570 -0.014386893794
0.182948000000 0.011336388993 -0.045928649787 -0.711524265535 0.030047973762 -0.710990830671 0.028950681909 -0.014230871704 -0.048396122687
0.189946000000 0.016306545981 -0.015904666688 0.351719749490 0.613464678738 0.350462948433 0.614054046933 0.000912045186 -0.033370547887
0.196944000000 -0.047944425056 -0.032406746892 0.377213549658 -0.587702928417 0.378643248089 -0.586585892317 -0.059592989889 -0.040459567322
0.203942000000 -0.006513356634 -0.152633764922 -0.672392627032 -0.046691077201 -0.671963521136 -0.048284964337 -0.112960272918 -0.122859636851
0.210940000000 -0.319719462978 0.101760182625 0.206480646616 0.592439424148 0.204753062974 0.592760099411 -0.245424345411 0.232582146671
0.217938000000 0.107423956168 0.196685460719 0.491747253921 -0.450489264246 0.493282044118 -0.450052745466 0.179167392063 0.133724457679
0.224936000000 0.018683060463 0.020735210809 -0.651879896356 -0.220878787730 -0.651291428845 -0.222146767214 0.030791815394 0.007057096202
0.231934000000 0.067397321787 0.012181561510 0.107992830276 0.673981763911 0.106673481890 0.674613152637 0.050706156482 -0.044831654501
0.238932000000 0.000700918942 -0.027313438709 0.546960197662 -0.402886315345 0.547717947889 -0.401527990103 -0.022044168636 -0.020433723975
0.245930000000 0.018466719756 -0.045257915264 -0.604575301160 -0.295746745104 -0.603508485343 -0.296364956318 -0.014012789822 -0.055684650962
0.252928000000 -0.007512241604 -0.008497547506 0.019586787362 0.665688957214 0.018874938684 0.665658178371 -0.040990614034 -0.041529730735
0.259926000000 -0.118861920328 -0.202944899984 0.544998818530 -0.307814617523 0.543205494203 -0.305671058921 -0.240302198128 -0.074864408689
0.266924000000 -0.239096009145 0.229901654950 -0.473518586185 -0.377324358333 -0.470563071067 -0.380425647752 -0.097297433186 0.322482742405
0.273922000000 0.104176940481 0.083716271112 -0.149045154821 0.631413512570 -0.151601073022 0.631165615714 0.132665573924 0.041847227605
0.280920000000 0.022027226073 0.078038457272 0.631256660696 -0.175033776905 0.632538699863 -0.171582041439 0.066378728231 0.051038374586
0.287918000000 0.060735474871 -0.013111255889 -0.441113454475 -0.480480522224 -0.438699561563 -0.481589382684 0.022185061690 -0.052317348135
0.294916000000 0.021203935063 -0.014629493416 -0.222220398430 0.611593001564 -0.224873411433 0.609609371346 0.011281897945 -0.002927267072
0.301914000000 -0.009523231321 -0.036520981082 0.640220152364 -0.082964469674 0.639895707608 -0.079114881780 -0.013609195307 -0.042303581088
0.308912000000 0.053489906677 -0.040430479742 -0.367215942220 -0.517356969607 -0.364211195711 -0.517313620772 -0.040438152468 -0.090171792860
0.315910000000 -0.218999258941 -0.152419776489 -0.282975389118 0.528148368798 -0.287527342016 0.521665174780 -0.272449327954 0.055219237399
0.322908000000 -0.098104168273 0.245078788573 0.593640780877 0.057649482015 0.594861036961 0.063165603099 0.061472596950 0.260988834912
0.329906000000 0.027201443329 0.037859954743 -0.228434186704 -0.586994901539 -0.224361818453 -0.588185783202 0.050876790021 0.024728547689
0.336904000000 0.059209157326 0.074119668044 -0.410335755200 0.472352867223 -0.413077279020 0.469811753869 0.096232016850 0.021758949366
0.343902000000 0.027991472161 -0.009532423622 0.609831611712 0.151070219064 0.607464621937 0.155214091915 0.009262399031 -0.024235262325
0.350900000000 0.020508062017 -0.004730544219 -0.145126158660 -0.608310783233 -0.140355002480 -0.608182109308 0.012039709045 -0.023524069544
0.357898000000 0.000746211104 -0.003895260924 -0.470172712023 0.406325300244 -0.472239572735 0.402469866624 -0.000452442902 -0.033510205953
0.364896000000 0.058062437257 -0.104442817146 0.566281038443 0.221115576650 0.560700690213 0.225274028834 -0.092002229490 -0.107870723011
0.371894000000 -0.255969280674 -0.029146134994 -0.043074493300 -0.574260435447 -0.034901737608 -0.576203586844 -0.212790897141 0.160177063775
0.378892000000 0.011109247843 0.170494260249 -0.524060908530 0.272685376043 -0.526920580427 0.270062961349 0.104995451385 0.137793692660
0.385890000000 -0.012092275519 0.069837332862 0.499058017592 0.343589015306 0.496546175453 0.347676001084 0.022818178038 0.069029347087
0.392888000000 0.060530410971 0.039617001425 0.081938124820 -0.599565560089 0.086288256956 -0.598039673862 0.068109162406 -0.009059198982
0.399886000000 0.027610583109 0.004393998158 -0.571142621491 0.201499957730 -0.572165763219 0.195940923764 0.011046625028 0.005587320528
0.406884000000 0.005363113430 -0.001075167687 0.437673384233 0.415075986835 0.433584549790 0.418802079739 0.014452386156 -0.001551382970
0.413882000000 0.013360213360 0.019265576163 0.168833303782 -0.575563875761 0.173646918347 -0.572819858175 0.007327121587 -0.039813211144
0.420880000000 0.007160594565 -0.107329458346 -0.578250226422 0.113433438222 -0.578891055929 0.105041899718 -0.110654993365 -0.055506146681
0.427878000000 -0.155536337067 0.072220209144 0.339317591201 0.461782878316 0.335257071381 0.467151272491 -0.085223267810 0.159937394159
0.434876000000 0.018275415278 0.063125864412 0.274648009067 -0.519074844511 0.280009271355 -0.516110112723 0.043592610831 0.045939416756
0.441874000000 0.006365443278 0.064445333678 -0.587209390001 -0.007461129296 -0.587012866337 -0.013719366255 0.030951419042 0.060111859728
0.448872000000 0.022646744313 0.028302627893 0.258672675194 0.526832100513 0.252450901341 0.529757002795 0.013724047371 0.004037628753
0.455870000000 0.012517999186 0.002374246156 0.351703252830 -0.467299157920 0.357397345243 -0.462938558778 0.004275367931 0.016606072268
0.462868000000 -0.000407454629 0.012253146019 -0.573813539624 -0.103069351862 -0.572141482545 -0.109035497950 0.012504449312 0.010013039245
0.469866000000 0.014797851026 0.030403573358 0.167328059207 0.555268729369 0.160593286129 0.556762584346 -0.017472296205 -0.021216766397
0.476864000000 -0.026381736649 -0.070533850955 0.413250291563 -0.394623936070 0.418321444334 -0.390186767263 -0.096240545440 0.013238077046
0.483862000000 -0.056584324229 0.079696366752 -0.531895294191 -0.199635946277 -0.529746396404 -0.205478788811 -0.010358279815 0.114242619989
0.490860000000 -0.007288479719 0.028048844947 0.061738288024 0.568365214214 0.055663511418 0.568710463235 0.002862589732 0.044636161990
0.497858000000 0.009941026159 0.031483861600 0.478201021566 -0.310487462979 0.481305352345 -0.305162034535 0.020418506652 0.048614038433
0.504856000000 -0.002825049673 0.030363828244 -0.490763645770 -0.285988493685 -0.487279537562 -0.291287636231 0.011512289953 0.037344251507
0.511854000000 -0.010066859790 0.013823840506 -0.034389435493 0.565048765970 -0.040835444004 0.564136562043 0.001592803127 0.033711502974
0.518852000000 0.004180568907 0.026010980122 0.518048645296 -0.222446200967 0.520784939213 -0.215666478019 0.023307278523 0.036825022114
0.525850000000 -0.007341579744 0.032049258177 -0.430310532723 -0.361550694295 -0.425155355467 -0.367357770077 0.027326722369 0.021177034426
0.532848000000 0.003062469991 0.019162783333 -0.128903231719 0.544235677135 -0.136117836068 0.542397217390 -0.012853778428 -0.014280897989
0.539846000000 0.025103273850 0.022537702382 0.542333780958 -0.128051792638 0.543045147419 -0.121276222365 -0.013604402810 0.050233730136
0.546844000000 -0.004089165044 -0.014692250225 -0.356833945467 -0.425153843820 -0.349510469219 -0.429225507589 0.014499107475 0.020141772161
0.553842000000 -0.032301983733 0.012019745469 -0.218843180001 0.507256173150 -0.226106937001 0.503459754472 -0.016101234422 0.017642965688
0.560840000000 0.007018887362 0.030018855185 0.549772654479 -0.032732246938 0.549352423402 -0.024426722722 -0.001715173944 0.041828909196
0.567838000000 -0.014445070242 0.009149746734 -0.275692106541 -0.473814332919 -0.266832661312 -0.477641117606 0.005413707191 0.037176358021
0.574836000000 -0.030572907943 0.008601326771 -0.297329890582 0.457086177557 -0.305539328295 0.450614357759 -0.000739617879 0.033745119300
0.581834000000 -0.005679320447 0.086496148070 0.537210587509 0.060466867630 0.537059592504 0.070763373992 0.056533416108 0.042712950834
0.588832000000 0.048000083151 0.023040495690 -0.184299282543 -0.508826882418 -0.176274066580 -0.510438999371 -0.010771578221 -0.035918409877
0.595830000000 0.036433710967 -0.005286233796 -0.369709147145 0.394312553039 -0.375454257734 0.385619181186 -0.003846708707 0.031861192528
0.602828000000 0.010336499458 -0.026721402533 0.515943215172 0.152312934911 0.510826346641 0.162081407562 -0.021765411937 0.008440094984
0.609826000000 -0.040987740796 -0.008375452462 -0.095797494326 -0.527146332336 -0.084354529067 -0.528148600066 -0.012083997478 0.051099417772
0.616824000000 -0.012926314532 0.010804801877 -0.425551014016 0.321074704820 -0.431047655307 0.312980726887 0.001005445292 0.026501207527
0.623822000000 -0.016447292500 0.019078794230 0.475858820774 0.232576343280 0.470835375650 0.241588503898 -0.007408640454 0.047828046464
0.630820000000 -0.095855133838 0.020694930425 -0.010211926099 -0.520479870703 0.002125698535 -0.522161711880 -0.004684809988 0.101668902764
0.637818000000 0.035487017809 0.170787192987 -0.457039787003 0.223139707881 -0.461755493318 0.220435000633 0.155998892348 0.015754867889
0.644816000000 0.099353842540 0.020694264763 0.413354367115 0.322763323454 0.404983756043 0.325252640453 -0.027550198224 -0.055872479115
0.651814000000 0.075862208984 -0.009663549168 0.095637932481 -0.514268272857 0.104213093496 -0.509626633450 0.018176178835 -0.017680883836
0.658812000000 0.026164631969 -0.076883922286 -0.501070480339 0.147351064946 -0.501087510421 0.134086780496 -0.069741266321 0.007774032336
0.665810000000 -0.038474081834 -0.001980304873 0.355271164151 0.378112214028 0.347709282366 0.386247052871 -0.006954117681 0.055048601917
0.672808000000 -0.026580532229 -0.006475596599 0.173950585614 -0.486725571813 0.184229578702 -0.482845182658 -0.023217320211 0.039771846077
0.679806000000 -0.010192655625 -0.007555313455 -0.506365747227 0.067489161084 -0.508346095532 0.055855940075 -0.019956016018 0.067608540375
0.686804000000 -0.142104146504 0.090677292257 0.274249510358 0.404214342309 0.270976632177 0.413868288582 0.063046737470 0.168079684326
0.693802000000 0.114385685554 0.174197428240 0.266454166069 -0.413868240800 0.266224750634 -0.408886921544 0.170136950531 -0.074347644247
0.700800000000 0.111183034701 0.005362609846 -0.508364333007 -0.047077065830 -0.503595320433 -0.059294160057 -0.027545315462 -0.024435898963
0.707798000000 0.102337920598 -0.035084141843 0.191180691350 0.471312418157 0.178941566965 0.473114796666 0.000150291707 -0.058055389566
0.714796000000 -0.008339048312 -0.094704086861 0.330578517807 -0.380880702874 0.342315088095 -0.373054318314 -0.075168576568 0.043104401121
0.721794000000 -0.016260732866 -0.000182269856 -0.489595578126 -0.123433464160 -0.488446666647 -0.133797944922 -0.000853150149 0.044117314783
0.728792000000 -0.017080598333 -0.006565804150 0.115072716552 0.487530428403 0.105046167025 0.491274676540 -0.020354999130 0.046288636079
0.735790000000 -0.059583271995 -0.079931598379 0.365970720099 -0.318923257512 0.376526671673 -0.313446798700 -0.055718170647 0.112253340394
0.742788000000 -0.159417750670 0.176835831096 -0.419085903746 -0.196438365450 -0.419666929129 -0.198467642749 0.188647770694 0.163607512882
0.749786000000 0.141326049503 0.146728508563 -0.008070108660 0.485185081490 -0.018631783466 0.478567878312 0.100518297898 -0.139333841637
0.756784000000 0.098572101940 0.026932313700 0.442205565486 -0.226305281967 0.447317028823 -0.215241789606 0.014520167343 -0.019031774190
0.763782000000 0.125568321174 -0.060139521709 -0.400189879655 -0.284304393723 -0.392159562161 -0.296056516518 -0.066177882335 -0.074052193835
0.770780000000 -0.029999080613 -0.083607867125 -0.078361020451 0.483982504207 -0.089106792081 0.484546717545 -0.045124910197 0.074015521229
0.777778000000 -0.022589216108 -0.025303955805 0.467863416733 -0.154931930199 0.471681172128 -0.143852249776 -0.020172211239 0.021679686530
0.784776000000 -0.009055207840 -0.002648725692 -0.349300019234 -0.339173573359 -0.342052218569 -0.348298842250 -0.039413680529 0.055140947015
0.791774000000 -0.139837584723 -0.066081315074 -0.137395875405 0.446271526224 -0.145665499090 0.444499343811 -0.028793556339 0.182152276714
0.798772000000 -0.080381960078 0.235120860953 0.455160910804 -0.052289931715 0.453163469089 -0.039842384321 0.239104151207 0.068143364229
0.805770000000 0.131257636938 0.083825261199 -0.252587309385 -0.404347556924 -0.241109043156 -0.412452522609 0.026705971776 -0.107110928233
0.812768000000 0.105428872452 0.045916540557 -0.239535658794 0.418468822391 -0.251070981974 0.412590357139 0.036401495342 -0.056369056995
0.819766000000 0.101735426811 -0.094975284255 0.474859744476 0.028746579266 0.474760694052 0.039261716887 -0.108731390539 -0.025618997100
0.826764000000 -0.034589551229 -0.049371303890 -0.190952332948 -0.443121076320 -0.179048845009 -0.446025840609 -0.009534552242 0.063566385161
0.833762000000 -0.019697872491 -0.011374501187 -0.302676370118 0.373766508471 -0.312104956743 0.365290079889 -0.028132277143 0.023251575300
0.840760000000 0.028640457757 -0.048384328603 0.463357261844 0.092331350412 0.459123872476 0.102708560954 -0.074409233371 0.070972994193
0.847758000000 -0.199529727805 -0.032471570423 -0.117367098929 -0.436354609042 -0.100521296503 -0.436057618575 0.069582846921 0.226518539476
0.854756000000 -0.011729287109 0.227264662647 -0.350866293684 0.277695403149 -0.363491792466 0.269077767969 0.218048048946 -0.048001186472
0.861754000000 0.081984737122 0.068434000669 0.424281097366 0.201315664829 0.420806924483 0.211319984445 0.018168653049 -0.049996490148
0.868752000000 0.139207525522 0.051106568421 -0.017913476442 -0.463646590071 -0.009562820321 -0.465000668384 0.011295919987 -0.107942905351
0.875750000000 0.077940188222 -0.095327560706 -0.413855915263 0.222315178517 -0.414560569783 0.210125440616 -0.081701041300 0.030818476679
0.882748000000 -0.007432067931 -0.050513608485 0.389914026156 0.265720467654 0.380530497632 0.276774333003 0.003995664282 0.004987788961
0.889746000000 -0.006414419997 -0.003948993042 0.056272515755 -0.466940540557 0.068362146042 -0.462994526121 -0.046155039818 0.007126019064
0.896744000000 0.008199284504 -0.100024436583 -0.431303613063 0.163572922401 -0.431606555818 0.146084114817 -0.089196634685 0.101025895413
0.903742000000 -0.181845675508 0.059040744605 0.320507377744 0.303057633131 0.310921230019 0.321905882580 0.127799101275 0.176151736140
0.910740000000 0.063541193207 0.143220582737 0.152144030455 -0.421020026096 0.160440791985 -0.421692057585 0.128173913853 -0.077894956914
0.917738000000 0.055619625790 0.060100802428 -0.456662166863 0.061972729167 -0.457706356988 0.051860043645 0.043521593914 -0.032517343179
0.924736000000 0.132559437718 0.006517826445 0.258425657794 0.379297222162 0.246665383835 0.378981449538 -0.045015691713 -0.087839608224
0.931734000000 0.035005174704 -0.075343973904 0.222082126608 -0.405570375847 0.235328918569 -0.393304480721 -0.038898840525 0.043462537693
0.938732000000 0.006509753504 -0.027166611457 -0.462373222499 -0.012677775432 -0.459506472780 -0.027933658011 -0.016694551558 0.009408508910
0.945730000000 0.024595779291 0.006132531241 0.201060199981 0.413462642085 0.185084556448 0.416636838845 -0.055739459815 0.031237425742
0.952728000000 -0.017231362173 -0.117538664444 0.264404857141 -0.357452258469 0.284431456963 -0.343685750820 -0.026515587233 0.162357981353
0.959726000000 -0.122628209500 0.108521223860 -0.419029776747 -0.092396859956 -0.427649998015 -0.103428038762 0.186221028854 0.089295270680
0.966724000000 0.067067102708 0.080586595072 0.097682074735 0.436965637172 0.088619781210 0.435423749718 0.070884510109 -0.067224828600
0.973722000000 0.074051058998 0.074900776387 0.343331167457 -0.290086112380 0.346538914544 -0.281094786097 0.067874011054 -0.053614053008
0.980720000000 0.131033893263 -0.023069717443 -0.415665937133 -0.176277668386 -0.401023928682 -0.190206658763 -0.060534307847 -0.039215532036
0.987718000000 0.037408603306 -0.068522533329 0.028289398836 0.449232747923 0.010579187688 0.450872344976 0.018880399121 0.023790562368
0.994716000000 0.005761778062 -0.027722470000 0.389110956520 -0.230250317953 0.395848389560 -0.216544868101 -0.010467302360 -0.011086569212
