# GHZ S RI R 50.000000000000
0.001000000000 0.005853451342 0.001273000295 0.995839732132 -0.049930625204 0.995744421177 -0.049646446821 0.004302710057 0.000861322648
0.006999000000 0.045602556420 -0.035270187015 0.975732745089 -0.356797980084 0.946226878393 -0.357770221828 0.045039194077 -0.036768938405
0.012998000000 -0.001670591666 -0.024341616704 0.804222613168 -0.572249842283 0.804306287816 -0.571948480010 -0.002666251823 -0.025218075539
0.018997000000 -0.018843092081 -0.030563599627 0.613930278044 -0.779104851079 0.616345860165 -0.775366854852 -0.019918332982 -0.031435990586
0.024996000000 -0.032047793224 -0.026311579496 0.372821005210 -0.907914024919 0.372341466217 -0.907832282507 -0.033199114472 -0.026780965614
0.030995000000 -0.043517430606 -0.015099716117 0.108844109464 -0.976982817196 0.110646995871 -0.976046868848 -0.044831410956 -0.014942342458
0.036994000000 -0.046869749779 0.000045661389 -0.166123496394 -0.963667087108 -0.166078537375 -0.963043907149 -0.047627972700 0.001143876972
0.042993000000 -0.041211847987 0.014691916869 -0.432884507330 -0.881605482405 -0.431499656564 -0.878800432039 -0.041446605923 0.015811944994
0.048992000000 -0.029692640940 0.023055826914 -0.652201129450 -0.725971653178 -0.651966138545 -0.725083201183 -0.029247543760 0.024141119705
0.054991000000 -0.015346308870 0.024114669778 -0.830195167180 -0.520213629184 -0.827974074930 -0.518046084569 -0.014431832582 0.024427912284
0.060990000000 -0.003348622863 0.016447465020 -0.936786545637 -0.265856879005 -0.936197986538 -0.265828417552 -0.002304109462 0.015798020523
0.066989000000 0.002651523665 0.003621481592 -0.977921852773 0.005124859518 -0.975089475119 0.004524545780 0.003394812038 0.002339179579
0.072988000000 0.000024251514 -0.010234620405 -0.932186312811 0.273926276437 -0.931675311229 0.273640317018 -0.000229494476 -0.012192296930
0.078987000000 -0.009854643216 -0.020717285592 -0.822573664046 0.523633223207 -0.820425563946 0.521938931736 -0.011133593946 -0.022564816615
0.084986000000 -0.024235548121 -0.023746219464 -0.641949287913 0.726653892495 -0.641814942437 0.725862281015 -0.026408381874 -0.024586140468
0.090985000000 -0.038340125722 -0.018714088159 -0.417374946758 0.879299628985 -0.416589949745 0.876250842066 -0.040622180200 -0.018166349425
0.096984000000 -0.047262624720 -0.006383107785 -0.156173370041 0.954852668022 -0.156890853584 0.953958335123 -0.048542885155 -0.004552187330
0.102983000000 -0.048488509040 0.008554860603 0.115653207703 0.964033962849 0.113736770818 0.961569881758 -0.048258418952 0.011133588647
0.108982000000 -0.041299805591 0.021590296425 0.375280202055 0.889361196925 0.374126381431 0.889292764000 -0.039034808095 0.023698724481
0.114981000000 -0.028648286986 0.028779108244 0.608944172692 0.753355136922 0.606651035333 0.752182497941 -0.024792991929 0.029326064573
0.120980000000 -0.014541534668 0.027431823057 0.789137703036 0.552177228545 0.788666210501 0.553057425050 -0.010134069856 0.025479201335
0.126979000000 -0.003587724827 0.018988958605 0.915034271770 0.313368990717 0.912599895500 0.313706628828 -0.000148814823 0.014479981550
0.132978000000 0.000086533881 0.005763982922 0.961303621661 0.048160208549 0.960997600007 0.047913335598 0.001050874872 -0.000042550411
0.138977000000 -0.004132943418 -0.007109829716 0.941060812536 -0.221313946220 0.938262792992 -0.220394190164 -0.005953231066 -0.012815674077
0.144976000000 -0.015339159193 -0.014946755869 0.838206784278 -0.470655982810 0.837305974038 -0.470114823607 -0.019354215246 -0.018700882493
0.150975000000 -0.029130566208 -0.015603830532 0.676866311697 -0.687369974174 0.674801810336 -0.684885421721 -0.033607980128 -0.016517547979
0.156974000000 -0.041033062072 -0.008189658637 0.456587700289 -0.842482776887 0.456966477949 -0.841573585274 -0.043853825961 -0.006190458878
0.162973000000 -0.047587880931 0.004544041611 0.205774876155 -0.938528042828 0.206548991220 -0.936097996948 -0.047071723736 0.007839047439
0.168972000000 -0.046090106663 0.018908944530 -0.059938262424 -0.952189260075 -0.059811418951 -0.952779566293 -0.041459809111 0.021144403231
0.174971000000 -0.037818048075 0.030705391062 -0.321418861359 -0.902158968856 -0.321135421552 -0.900304420173 -0.029732601188 0.029190323489
0.180970000000 -0.024766966722 0.036030060244 -0.554649270321 -0.774999773951 -0.555186985218 -0.774275558782 -0.015784129105 0.028899226842
0.186969000000 -0.011343584405 0.034332083987 -0.751042526898 -0.595052231713 -0.749390217832 -0.592057984241 -0.004591055399 0.021539443726
0.192968000000 -0.001428860363 0.026309813714 -0.882982718206 -0.362077596718 -0.881531473479 -0.360850522241 0.000185250754 0.009217096014
0.198967000000 0.003080139684 0.015255792970 -0.953370378617 -0.103343788324 -0.948846614709 -0.102504590124 -0.002206916410 -0.003449881994
0.204966000000 0.001091956257 0.004384469898 -0.939219262051 0.165381987406 -0.936789982021 0.163633415211 -0.011153854033 -0.012468191225
0.210965000000 -0.005527542189 -0.003457241147 -0.858792264885 0.420472929052 -0.855581492989 0.416840921397 -0.023300864961 -0.015442002469
0.216964000000 -0.014475765149 -0.006254126874 -0.703707994065 0.637399764204 -0.704422559223 0.634615215893 -0.034834673384 -0.011544969176
0.222963000000 -0.023005107220 -0.004567787069 -0.501828755388 0.808657707860 -0.502603950041 0.805058350268 -0.042847880686 -0.002910887811
0.228962000000 -0.028781660786 0.000671151626 -0.258046752272 0.910546445441 -0.260217715324 0.909963800641 -0.045171412595 0.007794359117
0.234961000000 -0.031525771515 0.007595038249 0.002142882015 0.950353024709 0.000635309720 0.948777222251 -0.042701977349 0.017752141455
0.240960000000 -0.030579613520 0.014521424871 0.263403859490 0.908496200388 0.262539941027 0.909080825258 -0.036501563495 0.024589644585
0.246959000000 -0.026985821603 0.020321343283 0.507485951055 0.803878317940 0.505293642261 0.802837655510 -0.028964174089 0.027985174601
0.252958000000 -0.021421336077 0.023166502504 0.706277797276 0.629210246039 0.705563699158 0.629526451107 -0.021921552295 0.027704991496
0.258957000000 -0.015270053957 0.023374886838 0.856328120422 0.410014807984 0.853740861972 0.409911907919 -0.016103496047 0.025175811299
0.264956000000 -0.010184282023 0.020620677267 0.930707382075 0.156103122265 0.930158098339 0.157178602536 -0.012683296814 0.020997361535
0.270955000000 -0.006987947960 0.016074003647 0.940288664196 -0.105986782206 0.938119325199 -0.106229086049 -0.011233394011 0.016302065472
0.276954000000 -0.006624496000 0.010357084507 0.869222648161 -0.360125533201 0.869327621350 -0.359428262461 -0.012068132387 0.011790472601
0.282953000000 -0.008839582031 0.005021131921 0.740104786608 -0.587771538810 0.738479206460 -0.586039119863 -0.014755034267 0.008190364376
0.288952000000 -0.014131250042 0.001574060002 0.546171282246 -0.765767429011 0.546157629599 -0.765773554926 -0.019130641919 0.006363533914
0.294951000000 -0.021144049491 0.001222121181 0.314693945985 -0.891200124273 0.314796637941 -0.888805095253 -0.024654758452 0.007088351107
0.300950000000 -0.027731511371 0.005219211885 0.055598543026 -0.939147453885 0.056143011125 -0.939058013936 -0.029547501168 0.011502631181
0.306949000000 -0.031657229559 0.012603697862 -0.206486087909 -0.921945006666 -0.206488389883 -0.919559833631 -0.031839236152 0.018795838075
0.312948000000 -0.030733806389 0.021617181004 -0.451697494827 -0.823853288692 -0.451160741569 -0.823739001281 -0.029750662218 0.027272345671
0.318947000000 -0.024897289429 0.029406837015 -0.663851915782 -0.669500548277 -0.662443664547 -0.668192036907 -0.022733703405 0.034448593548
0.324946000000 -0.015446638181 0.032813049426 -0.818829200186 -0.457467031242 -0.818668836216 -0.457347521654 -0.011733303542 0.037116032531
0.330945000000 -0.004949197736 0.030824400474 -0.916879886768 -0.214711900635 -0.914962493496 -0.213900625708 -0.000007205545 0.033541032927
0.336944000000 0.002372356401 0.022733738506 -0.935651955015 0.047835029477 -0.935239362450 0.047415068565 0.008642665437 0.023528628859
0.342943000000 0.004496730858 0.011312621600 -0.889476558104 0.305862566701 -0.887380964785 0.304886821181 0.011190034718 0.009527667900
0.348942000000 -0.000900707014 0.000545689406 -0.766148845014 0.536840688970 -0.766156166541 0.537025767948 0.005091166837 -0.004313612612
0.354941000000 -0.012127823246 -0.005816043514 -0.589895760069 0.730893467006 -0.588798505500 0.728583253999 -0.008262433581 -0.013274451192
0.360940000000 -0.025835349813 -0.004229307632 -0.363581331550 0.860596034874 -0.363263821363 0.860070468033 -0.025133812556 -0.013224708812
0.366939000000 -0.037468367989 0.005337696643 -0.112483824336 0.931238233982 -0.111539430238 0.928879456389 -0.040315275420 -0.003326562594
0.372938000000 -0.041733603745 0.020868704947 0.149008469769 0.920657196569 0.148825458832 0.920564327097 -0.047395058912 0.014354405983
0.378937000000 -0.036962768451 0.037498919594 0.399298721926 0.847510193875 0.398583743176 0.844941518921 -0.043597947349 0.033501779310
0.384936000000 -0.023190056010 0.049079340286 0.615513939600 0.699861269622 0.614880523713 0.699525920059 -0.029117031957 0.048007611028
0.390935000000 -0.004836491675 0.051997221991 0.787828133023 0.503892030389 0.785095970719 0.502619434022 -0.008622076976 0.052674503438
0.396934000000 0.012612256601 0.044170408568 0.890872283435 0.265104000164 0.890511863273 0.265010457631 0.011428502312 0.044765679423
0.402933000000 0.023330619665 0.028097481940 0.932838673688 0.009281179013 0.930346540681 0.009500326241 0.024531809849 0.026759449926
0.408932000000 0.023227752768 0.008857130187 0.894177905299 -0.246883616895 0.894171450303 -0.246759493542 0.024875193135 0.004140499778
0.414931000000 0.012433693357 -0.007267148652 0.794981426541 -0.486202257355 0.792900095240 -0.485484666151 0.012411537663 -0.015260738522
0.420930000000 -0.005538625549 -0.013858609288 0.627152048100 -0.683327621039 0.626517781969 -0.683003490512 -0.009227266220 -0.023748157333
0.426929000000 -0.024245064123 -0.009127073328 0.415541859349 -0.834301103104 0.413863991350 -0.831600672608 -0.032022016454 -0.018915906053
0.432928000000 -0.036478671864 0.006019745240 0.166979207580 -0.911398877023 0.166864707039 -0.910052499055 -0.047864874433 -0.001569506141
0.438927000000 -0.037906594324 0.025732448274 -0.091393767361 -0.925543424174 -0.091465426188 -0.921404239998 -0.051627370756 0.021940320675
0.444926000000 -0.027085962667 0.042551625732 -0.342603842344 -0.858157252113 -0.340540893708 -0.856909733890 -0.040953037411 0.043132554494
0.450925000000 -0.008385062293 0.050596287437 -0.567661889255 -0.732694686291 -0.564271697907 -0.731054002393 -0.020389397792 0.054740765518
0.456924000000 0.012015849188 0.046003194721 -0.742342735332 -0.545190801009 -0.741491302347 -0.546295871665 0.002934684919 0.052156259861
0.462923000000 0.026545450203 0.030431875272 -0.868546020525 -0.321551752867 -0.865791903279 -0.322112972204 0.020296419440 0.036817667927
0.468922000000 0.029121927885 0.009051100185 -0.919495001797 -0.069399470033 -0.919491527762 -0.070871683810 0.024742916213 0.014441153728
0.474921000000 0.019108258058 -0.010447506614 -0.907659372808 0.188465657773 -0.905828420892 0.187063927809 0.015710378493 -0.006070625300
0.480920000000 -0.000740328558 -0.020736526006 -0.815636729778 0.431038011758 -0.815857225515 0.430597911577 -0.004324862106 -0.016793841449
0.486919000000 -0.023505775317 -0.017784628684 -0.668370900636 0.640388940804 -0.665007074747 0.640573105056 -0.027118820302 -0.013599788217
0.492918000000 -0.040647001344 -0.002090820318 -0.458598724869 0.796340658247 -0.458611516607 0.795603672173 -0.043736067774 0.003118817288
0.498917000000 -0.046601936826 0.020876205687 -0.222042804629 0.893364941365 -0.221313067665 0.890692184746 -0.047967193049 0.026979137794
0.504916000000 -0.038521574298 0.043730656697 0.031436993860 0.913263128260 0.031005976619 0.913157599104 -0.037403704402 0.049684117406
0.510915000000 -0.019236437739 0.058611698847 0.280171214063 0.874007352795 0.278275620758 0.872861030110 -0.015302763736 0.062564050339
0.516914000000 0.004980424560 0.060428783088 0.506909351520 0.761206229551 0.506737230167 0.761485720405 0.010277050188 0.061019546477
0.522913000000 0.026152978992 0.049565107148 0.702402705412 0.596762948453 0.701087894091 0.594828484256 0.031205866416 0.046305406271
0.528912000000 0.037595519744 0.029357593691 0.837555625189 0.379071477419 0.837604252757 0.379018647104 0.039843575966 0.022595985240
0.534911000000 0.036941987224 0.006847536523 0.916325293125 0.131004101688 0.913550696247 0.131522453457 0.034886040878 -0.001590459963
0.540910000000 0.024014898401 -0.010793416875 0.911993346562 -0.129420702972 0.911066198373 -0.128007797682 0.017580420457 -0.018371628533
0.546909000000 0.004532842991 -0.018118605973 0.841279924988 -0.379209543637 0.840264803814 -0.376061926381 -0.005361538989 -0.022332320342
0.552908000000 -0.014470475443 -0.012665300543 0.698655335484 -0.591888676078 0.699914151398 -0.590285467318 -0.025535600102 -0.012679594670
0.558907000000 -0.026518531054 0.001422625006 0.510806003335 -0.762286121629 0.510831545463 -0.760333333905 -0.035894546722 0.005739172063
0.564906000000 -0.027860174844 0.019021383634 0.280569703148 -0.867861742818 0.281732244628 -0.868280973987 -0.033849954460 0.025579684887
0.570905000000 -0.019683858735 0.033252942807 0.032615847799 -0.916843714051 0.033376812715 -0.915285802743 -0.021936530603 0.040278061034
0.576904000000 -0.005296126984 0.040064588701 -0.220690229236 -0.888687038276 -0.219805551132 -0.888922417459 -0.004688089588 0.045127691303
0.582903000000 0.009639606462 0.038081492276 -0.461719937238 -0.798300939587 -0.459735855087 -0.796707050980 0.011686233041 0.040132776761
0.588902000000 0.020340737675 0.028055499257 -0.662860226800 -0.636041086926 -0.662197730597 -0.636541571423 0.021631333230 0.027319541079
0.594901000000 0.023628543333 0.014635955049 -0.817329506278 -0.428257269676 -0.814624522082 -0.427902478028 0.022655740311 0.012038481315
0.600900000000 0.018345186845 0.002331367580 -0.897632174702 -0.182805107244 -0.897680600484 -0.183997200366 0.014795261263 0.000048852718
0.606899000000 0.008011350139 -0.004103419633 -0.915199413264 0.073279024504 -0.912991342609 0.071499411433 0.002964159799 -0.004311238650
0.612898000000 -0.003522056406 -0.003076092143 -0.853665202676 0.319503800300 -0.854176451504 0.318928141493 -0.008316792495 -0.001014867074
0.618897000000 -0.011661964090 0.003546668222 -0.736116054779 0.543274739152 -0.734625405248 0.541872210593 -0.014585559256 0.007302648669
0.624896000000 -0.014158842966 0.012902476013 -0.556281652037 0.721699197469 -0.556822681116 0.721479151269 -0.014480714248 0.016696730238
0.630895000000 -0.011618755805 0.021456993531 -0.337573373477 0.852786983957 -0.338144700625 0.849749398971 -0.009525011895 0.023428151631
0.636894000000 -0.004750801356 0.027014227287 -0.088918313477 0.909097548827 -0.089737338619 0.908741203233 -0.002120997792 0.025908712271
0.642893000000 0.003136498706 0.028444539445 0.168202371333 0.903036050780 0.166690441361 0.900664467763 0.004926722246 0.024102107989
0.648892000000 0.010247179050 0.025428784699 0.409965321659 0.816789155072 0.409008964630 0.816552070135 0.009105037172 0.018981057536
0.654891000000 0.014499998944 0.020296122567 0.622673103198 0.673176881884 0.620500238926 0.671922825327 0.009664398794 0.013478105898
0.660890000000 0.015535342745 0.014658037211 0.779990036689 0.470970571186 0.779637635710 0.471944492868 0.007290624606 0.009401748860
0.666889000000 0.014824116138 0.010115569706 0.882369472064 0.238770845590 0.880160144309 0.238907958387 0.004344968784 0.007831785568
0.672888000000 0.012606603751 0.006859606558 0.908427904118 -0.013539116526 0.908386347210 -0.013045786890 0.001944492966 0.007924053300
0.678887000000 0.010540414053 0.004387433644 0.873797109656 -0.263324233796 0.871703111735 -0.262383946122 0.001118369867 0.008153505981
0.684886000000 0.007968139791 0.002567294172 0.763032280617 -0.492276059457 0.762885835535 -0.491922216846 0.000256650135 0.007892778518
0.690885000000 0.004550870622 0.001184005324 0.594551104753 -0.693494767205 0.597581768936 -0.687070637841 -0.001129723119 0.006915298478
0.696884000000 0.000336523035 0.000353834208 0.385424827835 -0.821565889135 0.385964725567 -0.821838238905 -0.003991516058 0.006615084680
0.702883000000 -0.004740788131 0.002270694080 0.143433398172 -0.900360074934 0.144700336663 -0.898160374501 -0.007869596637 0.008509259757
0.708882000000 -0.008694626841 0.006701571140 -0.110766605624 -0.899566345772 -0.109856946312 -0.899176858281 -0.010792901892 0.013173649105
0.714881000000 -0.010462073746 0.013654763391 -0.357734642108 -0.836557205596 -0.356198750846 -0.834601870318 -0.011137724040 0.020664121022
0.720880000000 -0.007772870696 0.021564243619 -0.571148244483 -0.702161633271 -0.570510359537 -0.702145212525 -0.006550337761 0.027994009408
0.726879000000 -0.000682217393 0.027714586060 -0.743939782674 -0.520857406035 -0.742539853664 -0.518840070031 0.002712413325 0.032786843020
0.732878000000 0.009145195547 0.029180746719 -0.854444315924 -0.291240728997 -0.854055802741 -0.292216075549 0.014380239120 0.031450562352
0.738877000000 0.019430521034 0.024333384386 -0.905391409558 -0.044713684602 -0.903384864897 -0.045241260088 0.024989954859 0.023187508463
0.744876000000 0.025836250661 0.014266392219 -0.877777539177 0.204347692322 -0.877907040330 0.203878414022 0.029359733601 0.009762775517
0.750875000000 0.025549919683 0.001578847887 -0.791565736431 0.440535584574 -0.789610931771 0.439337614606 0.025469988600 -0.005013950253
0.756874000000 0.017653210564 -0.009113546759 -0.636569391854 0.638046765872 -0.636169427549 0.638016774531 0.013325360234 -0.015279934295
0.762873000000 0.004397449873 -0.013757150612 -0.437747894908 0.793224422598 -0.436747868964 0.790812770526 -0.003534446180 -0.016991700257
0.768872000000 -0.009473023820 -0.009640477469 -0.200429380729 0.879181109014 -0.200545610325 0.878236225473 -0.018471228312 -0.008424186836
0.774871000000 -0.018922453922 0.002511131161 0.051949413426 0.903714972170 0.050692693187 0.900880404350 -0.026304605094 0.007986345360
0.780870000000 -0.019542487609 0.018215555440 0.297353173518 0.848748049053 0.296225390832 0.848587260439 -0.022839428809 0.026544384562
0.786869000000 -0.010756238136 0.032811021954 0.522199278212 0.736052702040 0.520003817359 0.735391329742 -0.008356493458 0.040709450024
0.792868000000 0.005781620091 0.039642522936 0.699853331485 0.561393872496 0.700046916661 0.562073314468 0.012100199016 0.043856178811
0.798867000000 0.024214569636 0.035747511355 0.830657841672 0.349519223598 0.829128347729 0.348629526936 0.031337393627 0.034777357980
0.804866000000 0.037570286656 0.021430529782 0.891351074213 0.107708533764 0.891141974417 0.106913778543 0.042135179011 0.015731216421
0.810865000000 0.040867545304 0.001515832032 0.891633106470 -0.142972180924 0.888998434521 -0.142973046542 0.040439635858 -0.006776196940
0.816864000000 0.031755155488 -0.017465334141 0.814360065146 -0.382333778461 0.813604802046 -0.382495731957 0.025686509832 -0.024270695521
0.822863000000 0.013041089044 -0.028287861393 0.682239084551 -0.593174072499 0.677757164793 -0.593833203907 0.003409841646 -0.030362502471
0.828862000000 -0.009188022401 -0.026437090132 0.485220827291 -0.757012304007 0.484609251597 -0.756492840632 -0.018921678681 -0.021596127066
0.834861000000 -0.027214612650 -0.012224502479 0.257188892132 -0.864658079836 0.256110790454 -0.862375246034 -0.031765119607 -0.000843705985
0.840860000000 -0.034048199773 0.010713656036 0.009188142926 -0.895457614437 0.008558644618 -0.895953377138 -0.029399324180 0.023833497045
0.846859000000 -0.026841005612 0.034262230508 -0.238061765978 -0.866984333944 -0.238175675731 -0.864467041275 -0.012951264777 0.043140424194
0.852858000000 -0.007242548782 0.049521567203 -0.464181804307 -0.765136465009 -0.464274712320 -0.763530486206 0.012637518681 0.049213347593
