# GHZ S RI R 50.000000000000
0.001000000000 0.007984086084 0.000554697546 0.992519649298 -0.062049411957 0.989424639719 -0.059973968947 0.006571470391 0.000601198525
0.007998000000 0.003787751050 -0.018157057334 0.883951982035 -0.434166278539 0.883935464228 -0.433936636362 0.003911595867 -0.018225986151
0.014996000000 -0.012430003621 -0.028594319660 0.648416367956 -0.733046217128 0.647898332545 -0.733496186396 -0.013097671793 -0.028164234740
0.021994000000 -0.031652387493 -0.025216147706 0.320490320561 -0.920393609646 0.319472175981 -0.920577799707 -0.032475126830 -0.024162013163
0.028992000000 -0.043552529335 -0.009444909774 -0.051430906622 -0.970412711973 -0.051623980590 -0.969863021370 -0.044050193174 -0.007811838221
0.035990000000 -0.041257068505 0.009162370754 -0.414934649103 -0.876189363463 -0.414529598096 -0.875764337801 -0.040950360685 0.010957942277
0.042988000000 -0.027408917852 0.020334581233 -0.714957208457 -0.653061695516 -0.714526705838 -0.653076471606 -0.026319226634 0.021759716168
0.049986000000 -0.010396465926 0.018080042364 -0.908459980880 -0.332925793334 -0.908137434076 -0.333528394790 -0.009393346338 0.018619254671
0.056984000000 -0.000649716929 0.004463036063 -0.965024851910 0.036710062513 -0.964906559040 0.036107363222 -0.000424155680 0.004238813050
0.063982000000 -0.003984637948 -0.011979421363 -0.877857126068 0.399409135364 -0.877653686340 0.398919060554 -0.004621144479 -0.012392723758
0.070980000000 -0.018540481713 -0.021495830629 -0.660251794663 0.700510311998 -0.660134940534 0.700050930896 -0.019901922268 -0.021003476425
0.077978000000 -0.035989694597 -0.017573032501 -0.345099756934 0.897356251284 -0.345409596148 0.896741858761 -0.037262594844 -0.016122390766
0.084976000000 -0.046037662045 -0.002156881119 0.020826047608 0.959602619559 0.019862748110 0.959538505296 -0.046612758211 -0.000200694242
0.091974000000 -0.042720370249 0.016043386680 0.382589277712 0.878173375469 0.381775028097 0.878752800826 -0.042361278356 0.017679873787
0.098972000000 -0.027626351230 0.026894824910 0.685949069360 0.667288495287 0.685661952591 0.668037510026 -0.027047958111 0.027732501973
0.105970000000 -0.009544343490 0.023908767678 0.887466871510 0.357461726108 0.887401080537 0.357821698924 -0.009518978446 0.024046255957
0.112968000000 0.001459519418 0.008986995417 0.955253587537 -0.004149134425 0.955224284617 -0.003937911434 -0.000045435552 0.009038226323
0.119966000000 -0.001595153205 -0.009423931061 0.881678170192 -0.365852476351 0.881791883773 -0.365337133744 -0.004628196225 -0.008107551808
0.126964000000 -0.017118991247 -0.020485310350 0.675889016483 -0.672124790839 0.676472102612 -0.671266800163 -0.020577595627 -0.016716545936
0.133962000000 -0.036451353151 -0.017530240204 0.369661391206 -0.876305774780 0.370864579512 -0.875699061346 -0.038490159170 -0.011454844107
0.140960000000 -0.048480689398 -0.001766333601 0.010324124140 -0.949273979867 0.011976520998 -0.949510494826 -0.048104015998 0.005320369419
0.147958000000 -0.046502195335 0.018271935329 -0.348353814092 -0.881730016725 -0.346843981764 -0.882565117012 -0.043543519436 0.024402826611
0.154956000000 -0.031517993299 0.031383956142 -0.654694785330 -0.684560364028 -0.654292911026 -0.685394431778 -0.027499151448 0.035028086684
0.161954000000 -0.011716435854 0.030855251496 -0.864601485886 -0.386255867635 -0.864412033143 -0.386926823715 -0.009114667761 0.031715612701
0.168952000000 0.002125090325 0.016971913291 -0.945978980569 -0.029532912271 -0.946097624260 -0.030327133315 0.001259382607 0.017186038942
0.175950000000 0.002462946788 -0.002478561658 -0.885661663755 0.330767808529 -0.886031165588 0.329903673716 -0.002088649327 0.000123390185
0.182948000000 -0.010686571766 -0.016232505512 -0.693392145768 0.640419862692 -0.694047785262 0.639544841134 -0.016834036598 -0.008539335478
0.189946000000 -0.029191367688 -0.017370825050 -0.398944496332 0.853352939112 -0.400507561565 0.853206562453 -0.033187831528 -0.003859018252
0.196944000000 -0.043407117213 -0.005544522002 -0.047231404508 0.939786871394 -0.047982519859 0.940585991082 -0.041756473552 0.011382778670
0.203942000000 -0.045428725600 0.012191787285 0.311388778534 0.886986716472 0.310699410886 0.887704512431 -0.036600791137 0.029190397553
0.210940000000 -0.035053476027 0.026034563968 0.623546565688 0.703509766860 0.623195817276 0.704137536369 -0.020272724557 0.038722298496
0.217938000000 -0.018596252198 0.028194252554 0.843257829419 0.415007732721 0.842967855770 0.415818029825 -0.001183965530 0.034371229636
0.224936000000 -0.006224586926 0.018446175454 0.936739787161 0.064595698523 0.936811728428 0.065662950650 0.009379564514 0.017989038862
0.231934000000 -0.004928207426 0.002904237116 0.890020890707 -0.294993168488 0.890945415684 -0.293317915228 0.006057532596 -0.001649191902
0.238932000000 -0.015524715664 -0.008888887026 0.711247566408 -0.608655874093 0.712650525573 -0.608096064156 -0.010052754651 -0.013649617506
0.245930000000 -0.032041678097 -0.009297049390 0.427692885799 -0.831531505443 0.428640043556 -0.831676112010 -0.030203070651 -0.011420172065
0.252928000000 -0.044617176394 0.002603130599 0.081657750337 -0.930623985902 0.082165319349 -0.930444327739 -0.043554301938 0.003842795818
0.259926000000 -0.045930369864 0.020451874799 -0.275717373635 -0.891937462159 -0.275296477763 -0.891881742572 -0.043249151113 0.023997848011
0.266924000000 -0.034668310680 0.035028463221 -0.591924306821 -0.721206463707 -0.591298966845 -0.721229261240 -0.030068472359 0.038593637102
0.273922000000 -0.016179082392 0.038445763657 -0.820301545044 -0.443177978445 -0.819418739511 -0.444301262208 -0.010546342343 0.040466844133
0.280920000000 -0.000506067551 0.028651806375 -0.926454476072 -0.099260343539 -0.926223518818 -0.101014103528 0.004461601897 0.028710633141
0.287918000000 0.004037587001 0.011064544401 -0.894055733365 0.258544664721 -0.894315971942 0.257327036206 0.007017450572 0.010543923662
0.294916000000 -0.004748012104 -0.004460241102 -0.729000033181 0.576513374368 -0.729449495067 0.575508318249 -0.003866803584 -0.003829117873
0.301914000000 -0.021911973284 -0.009141898081 -0.456858194020 0.808659962737 -0.457246782784 0.807751260620 -0.021855682779 -0.006610970883
0.308912000000 -0.037911719941 -0.000424735478 -0.117075843905 0.920547799492 -0.118225126354 0.919433777806 -0.036746723848 0.004124426505
0.315910000000 -0.043494677433 0.017570927496 0.239567688355 0.895396468604 0.237104099159 0.895177937610 -0.040460074216 0.022704908080
0.322908000000 -0.034954992914 0.035139436939 0.559769198271 0.737495475681 0.557558296056 0.738804492529 -0.030503695458 0.038751835729
0.329906000000 -0.016650405643 0.041999823750 0.796091571039 0.470035663562 0.795131868037 0.472214558360 -0.012588395310 0.043834791090
0.336904000000 0.001510867523 0.034991791612 0.913944313435 0.134174564275 0.913612347962 0.136105802448 0.003687691763 0.035505278319
0.343902000000 0.009770347596 0.017642821293 0.896408124752 -0.220445925674 0.896442900712 -0.218986183725 0.009457776291 0.018675198482
0.350900000000 0.003662635622 -0.000683130970 0.746229061385 -0.542731360445 0.746501366704 -0.541086542911 0.001520068309 0.002871396081
0.357898000000 -0.013748969129 -0.009332479025 0.485207854711 -0.784326464462 0.486230295940 -0.782347679399 -0.015458165228 -0.002795987639
0.364896000000 -0.032655231037 -0.002859488400 0.151313724161 -0.908875201545 0.154054308502 -0.907655481227 -0.031792669150 0.005528364040
0.371894000000 -0.041860806990 0.015579000436 -0.203411427946 -0.896687856561 -0.201098054651 -0.897208007663 -0.038013086717 0.023244685607
0.378892000000 -0.035963172996 0.035569797736 -0.526679492639 -0.751796994006 -0.524156309402 -0.753946315688 -0.030670166796 0.041068443547
0.385890000000 -0.017655030459 0.046727518925 -0.769966046882 -0.497250628061 -0.769137207653 -0.499510275253 -0.013282687237 0.049067214454
0.392888000000 0.003398920609 0.042826328105 -0.899876876910 -0.170413062466 -0.899921535770 -0.172720316311 0.004339949757 0.043620526591
0.399886000000 0.016208027661 0.025723093427 -0.897663077063 0.181920187994 -0.898347491554 0.179586682861 0.013019456654 0.028010422694
0.406884000000 0.013876367862 0.004834447266 -0.762394153807 0.508373747356 -0.763226183506 0.506039284696 0.008334921975 0.011725035285
0.413882000000 -0.002108958748 -0.008568769740 -0.512751325477 0.758146460565 -0.514952841648 0.756506258959 -0.006473104001 0.004222086603
0.420880000000 -0.022507737272 -0.006827034766 -0.186962200173 0.894627755734 -0.190082814197 0.894278436780 -0.021758742135 0.010201903650
0.427878000000 -0.035526206303 0.008069325502 0.164404647615 0.897340391069 0.161573722759 0.898836554405 -0.028051274922 0.025600358124
0.434876000000 -0.034844672419 0.027513457544 0.489738770472 0.768015370698 0.488510890178 0.770463023221 -0.021080466314 0.041510285873
0.441874000000 -0.021360229970 0.040762098172 0.742446059944 0.526704291854 0.742170713578 0.528881083066 -0.004569078329 0.048202620489
0.448872000000 -0.002826916041 0.040717542971 0.886189857000 0.207418639382 0.886480741619 0.209507863937 0.012281420546 0.041536107336
0.455870000000 0.009606295441 0.028165930400 0.899706168907 -0.142960278729 0.900045634880 -0.140897933017 0.020108332654 0.025113338384
0.462868000000 0.009243659924 0.011138042512 0.778442916713 -0.472288368167 0.779516354315 -0.470569459613 0.014573693561 0.007484577631
0.469866000000 -0.003777021887 -0.000370525505 0.540700964918 -0.731253127741 0.543259601026 -0.730144503047 -0.002003210750 -0.000953497994
0.476864000000 -0.021051950407 0.001163726272 0.223802927126 -0.879995450584 0.226522046155 -0.880353356440 -0.019867124207 0.003897434628
0.483862000000 -0.032781365751 0.014954896331 -0.124875828040 -0.898346868048 -0.122298031313 -0.899569669961 -0.029766127084 0.019705733620
0.490860000000 -0.031445191610 0.034092523179 -0.453994329941 -0.784570064739 -0.452487989845 -0.785789654677 -0.026533285699 0.038130816934
0.497858000000 -0.017276909366 0.048082743566 -0.715962520019 -0.555305622718 -0.715782047888 -0.556067744171 -0.012325929182 0.050006533173
0.504856000000 0.002781977551 0.049403534101 -0.872538901294 -0.243847154653 -0.872837551129 -0.245404771842 0.006231347898 0.049931856746
0.511854000000 0.018723947692 0.037643227632 -0.900371283456 0.104510935843 -0.900761499122 0.102797753640 0.019064213692 0.038571922497
0.518852000000 0.023379848131 0.018861372983 -0.793266339075 0.437096380605 -0.794446314994 0.436318751511 0.021093585343 0.022652579749
0.525850000000 0.015003672615 0.002960605848 -0.568824982920 0.703438944554 -0.569439707408 0.703653789570 0.012717586664 0.011394449171
0.532848000000 -0.000065244641 -0.002898483494 -0.260076908578 0.866423553965 -0.261145703711 0.865703950165 0.000680318369 0.009188969419
0.539846000000 -0.013585765856 0.003065847311 0.086575989491 0.899832835437 0.085428410201 0.899208608285 -0.007810116503 0.016031345248
0.546844000000 -0.018316972454 0.015390231671 0.419994016548 0.800133566179 0.418139110094 0.799803369343 -0.008053706089 0.025867724368
0.553842000000 -0.012760399243 0.026749467332 0.690759531232 0.581329628122 0.688784952052 0.582295776193 -0.001095394399 0.033126750596
0.560840000000 -0.000436757660 0.030506196263 0.858807374650 0.276756616869 0.857681547203 0.278961501275 0.009086508870 0.031894594018
0.567838000000 0.010317544253 0.023844071475 0.898313046154 -0.068634385117 0.898774382549 -0.066277353959 0.015628295444 0.023580464128
0.574836000000 0.013400938339 0.011422796072 0.805202748872 -0.402619630127 0.805862581618 -0.400880125019 0.014034687523 0.012735071986
0.581834000000 0.006757041039 0.000446338177 0.593081772170 -0.676146877784 0.593454094114 -0.674935230132 0.005649171117 0.005676712106
0.588832000000 -0.006018959716 -0.002970755602 0.293526231831 -0.850218240635 0.294642646872 -0.848733840745 -0.005585084722 0.006349338018
0.595830000000 -0.017979296441 0.003744957828 -0.049425915039 -0.898107447294 -0.046722870139 -0.896220382622 -0.013662641039 0.014927205751
0.602828000000 -0.021930656480 0.017582803714 -0.385135121894 -0.812069080740 -0.381369304688 -0.811916399894 -0.013986927799 0.027353472289
0.609826000000 -0.014967016025 0.030835927363 -0.662924119425 -0.605112404338 -0.659676426744 -0.608006465108 -0.005666382122 0.036264326385
0.616824000000 -0.000630124213 0.035919922360 -0.841033666718 -0.309141090128 -0.840325239063 -0.312239401097 0.006227794665 0.037678126497
0.623822000000 0.013845623363 0.030313086877 -0.894628803990 0.030927767597 -0.895327397939 0.028171692862 0.015894135344 0.031116923654
0.630820000000 0.021182364013 0.016519210803 -0.815969016105 0.365511725693 -0.816994007942 0.363371629981 0.018554953821 0.020055431481
0.637818000000 0.017022340643 0.001135261179 -0.618161167980 0.646991857102 -0.618754382002 0.643858752403 0.013118323199 0.010799176413
0.644816000000 0.003783627672 -0.007088889636 -0.328146600524 0.832163262318 -0.330427719905 0.829002553673 0.003136182905 0.008402262816
0.651814000000 -0.011314910232 -0.003785031701 0.011175264750 0.893964200686 0.006489787575 0.892449708711 -0.005482525114 0.014682983382
0.658812000000 -0.019564638824 0.009215953127 0.348388272068 0.822383169486 0.343746154705 0.823330641274 -0.006366229077 0.025204264288
0.665810000000 -0.016821232469 0.023801719732 0.632163334569 0.627954886640 0.629601880794 0.631663235657 0.000600542787 0.033731518885
0.672808000000 -0.005235736929 0.032569720736 0.820996706798 0.342513656207 0.821023319826 0.346080121990 0.012178461795 0.035195357198
0.679806000000 0.009057578208 0.031059137469 0.889403044433 0.008171516473 0.890000841114 0.010495473639 0.022343688717 0.028096821259
0.686804000000 0.018035740611 0.020238679684 0.826991615014 -0.327721846228 0.827462321406 -0.325115619211 0.024889239404 0.015683385236
0.693802000000 0.016537055036 0.007108136983 0.642241039717 -0.615712979828 0.643423897383 -0.612516150530 0.018516751036 0.004810663577
0.700800000000 0.006113779436 -0.000345500595 0.361274501188 -0.812785376099 0.364791834824 -0.810601852335 0.006588918872 0.001227073975
0.707798000000 -0.006099832473 0.002829138011 0.027228501004 -0.888181399118 0.032372336951 -0.888086670614 -0.004452857315 0.006990808802
0.714796000000 -0.012444034253 0.013635751033 -0.310557226629 -0.831721137643 -0.306724875092 -0.834047211888 -0.008844189842 0.018234758133
0.721794000000 -0.009008289625 0.026409306867 -0.600672749044 -0.651734256068 -0.598906156288 -0.655270094125 -0.004514284449 0.029164839953
0.728792000000 0.002920560233 0.033255048499 -0.801498172924 -0.377222744472 -0.801494971817 -0.380327021915 0.006020685926 0.034273802085
0.735790000000 0.016930232914 0.030026733063 -0.884388312309 -0.047327257590 -0.885253776843 -0.050414836293 0.016408869389 0.031089045648
0.742788000000 0.025021894309 0.018094796299 -0.837141875722 0.289922847519 -0.838360491469 0.287015603289 0.021294557089 0.022072858943
0.749786000000 0.022712780475 0.004568807166 -0.665957876863 0.584798512421 -0.667827117472 0.582381467348 0.018984446351 0.013063019450
0.756784000000 0.012227280408 -0.003975608637 -0.395115304563 0.792953511627 -0.398936444951 0.792023226530 0.011195000590 0.008632239732
0.763782000000 -0.000716397478 -0.002961997323 -0.065252154583 0.882242886623 -0.069308310047 0.883355368990 0.003126491463 0.011102741130
0.770780000000 -0.009433942334 0.006649967024 0.272637082839 0.840224120690 0.269649977197 0.842509245124 -0.000904052184 0.018380276365
0.777778000000 -0.008163732989 0.019310227394 0.569515666382 0.675792958196 0.566908283161 0.678383809304 0.001692698574 0.026042953104
0.784776000000 0.001911164439 0.027268770448 0.780925802916 0.411226634147 0.780774546216 0.414109707024 0.008857367038 0.029340742430
0.791774000000 0.014275148383 0.026171752636 0.878565150593 0.085662546878 0.878941361198 0.088307910715 0.016333780304 0.027191897273
0.798772000000 0.022486315989 0.016620775447 0.845497656315 -0.252916699133 0.847203710688 -0.249809829487 0.020077918379 0.020762747485
0.805770000000 0.022155766726 0.004304448024 0.686708858148 -0.553549812216 0.689670147530 -0.551336292103 0.018197835807 0.013692171460
0.812768000000 0.013814051006 -0.004308316054 0.426596265876 -0.771621199089 0.428886233260 -0.770612003242 0.012162081096 0.010006293246
0.819766000000 0.002326060444 -0.004595369633 0.103111516526 -0.875408885454 0.105795074397 -0.875092472315 0.006007811471 0.011136529797
0.826764000000 -0.005643427232 0.003254285899 -0.234672229807 -0.849477843163 -0.232001330419 -0.849586778333 0.002362217090 0.016586333389
0.833762000000 -0.005722141983 0.014720134369 -0.538292968339 -0.697033678799 -0.535296663197 -0.698094874271 0.003408378323 0.022556883673
0.840760000000 0.002833431245 0.022932056354 -0.761821787543 -0.441624125256 -0.759270021154 -0.444408344457 0.007378314561 0.026540094933
0.847758000000 0.015334505531 0.023052354102 -0.871941323313 -0.120912110596 -0.870637782871 -0.124446065829 0.012791915516 0.026879812637
0.854756000000 0.025668494799 0.014202795049 -0.852239259009 0.216823864312 -0.852861564376 0.213918249705 0.016711281210 0.024666435342
0.861754000000 0.028092711305 0.000391279780 -0.706365154656 0.522742122099 -0.707587770416 0.520216522470 0.018635225562 0.020949682750
0.868752000000 0.021599498958 -0.012238701648 -0.456023618121 0.750481830458 -0.458591105577 0.747556333905 0.017894820107 0.018836653808
0.875750000000 0.008443264389 -0.018372471806 -0.139381221935 0.866531823478 -0.142581565131 0.865155475707 0.017685066043 0.018262665331
0.882748000000 -0.005251891922 -0.015454926830 0.198414272496 0.854063600892 0.193622308511 0.853807549234 0.018749396891 0.018863804525
0.889746000000 -0.013047080734 -0.004867938515 0.506398996395 0.715558303687 0.500452243041 0.717588683762 0.020957750418 0.018418101379
0.896744000000 -0.012456525281 0.007442106024 0.737595673814 0.470134187760 0.734863630307 0.475788524111 0.023666839332 0.016499239773
0.903742000000 -0.004558262353 0.015545128746 0.859559589183 0.157340403971 0.859959307456 0.162563035914 0.025929488132 0.012072437267
0.910740000000 0.005336848970 0.016098480275 0.854488910182 -0.178847849248 0.856498388504 -0.174483332008 0.025171011695 0.006544325405
0.917738000000 0.012064084176 0.010142634002 0.723673594590 -0.488025084562 0.725686076125 -0.485261378266 0.021196608557 0.001637013162
0.924736000000 0.012291736660 0.001846368188 0.486174393015 -0.724855591010 0.488649626271 -0.720973962575 0.014430673728 -0.000390357402
0.931734000000 0.005891011328 -0.002935498980 0.177356585183 -0.855091866938 0.181018767514 -0.851248562823 0.007715166906 0.002216389907
0.938732000000 -0.001856800435 -0.000598211098 -0.159248148551 -0.858219588726 -0.152523168770 -0.857116085442 0.004073555554 0.008961675702
0.945730000000 -0.005223146896 0.008387176616 -0.471620070556 -0.733917964708 -0.464933278373 -0.737601919407 0.004978138806 0.015969120895
0.952728000000 -0.001289710562 0.017712568333 -0.712972596677 -0.499558303079 -0.710613896072 -0.505300478892 0.009090420148 0.021610406856
0.959726000000 0.009306280627 0.022564244017 -0.847932515706 -0.193222936838 -0.848006351637 -0.197733230318 0.016314174503 0.023280335879
0.966724000000 0.022026274506 0.019500828108 -0.857208571090 0.140900592829 -0.857659313401 0.136850813230 0.023048864393 0.021079783147
0.973722000000 0.030558939081 0.008375178983 -0.740592919993 0.453161265742 -0.741498506846 0.448560742846 0.027130301249 0.015862807790
0.980720000000 0.029712237201 -0.006036777518 -0.514793825657 0.698569136682 -0.518772924088 0.693483017815 0.027368944956 0.010858793009
0.987718000000 0.020794651717 -0.016161042353 -0.213479016602 0.841156196270 -0.220262893412 0.839058560930 0.025074489080 0.007141783935
0.994716000000 0.007518799561 -0.018078744879 0.119762661897 0.859129555280 0.113188427212 0.861725408330 0.023397678530 0.006791233773
1.001714000000 -0.002430017918 -0.012093326988 0.435712942572 0.749812939267 0.432098105442 0.755344724227 0.023346185083 0.006902017306
