# GHZ S RI R 50.000000000000
0.001000000000 0.014778416640 0.002169552902 0.983864361872 -0.114328145330 0.983677760919 -0.112214417585 0.013640936143 0.000674245113
0.006999000000 0.003825587184 -0.064505756929 0.722752858653 -0.715243683260 0.697065812768 -0.704855518412 0.006871902376 -0.068506348183
0.012998000000 -0.020890236842 -0.022707072991 0.160770842997 -0.948116248037 0.160459903911 -0.948706395270 -0.021157498981 -0.029470392561
0.018997000000 -0.022965435119 -0.002422744421 -0.437823254726 -0.857067953681 -0.435148209972 -0.857111426228 -0.030264908637 -0.010682471376
0.024996000000 -0.007993931514 -0.004853384956 -0.848404434824 -0.425905484845 -0.848741388902 -0.424325395208 -0.021166597564 -0.007283588016
0.030995000000 -0.010010938261 -0.027541852281 -0.935511521191 0.160533026533 -0.934643233914 0.158860854705 -0.020750384696 -0.021973505860
0.036994000000 -0.043548900417 -0.033977570966 -0.650265665628 0.680727494414 -0.649951280612 0.680360847711 -0.046682388561 -0.027141906401
0.042993000000 -0.070574933689 0.001180397082 -0.115387323557 0.936372697035 -0.115447938091 0.933390272763 -0.070823750294 0.002401512940
0.048992000000 -0.050511704541 0.047154004895 0.456176155855 0.817772882918 0.456177546186 0.817403220336 -0.055034264377 0.045077165790
0.054991000000 0.001536224165 0.054200704867 0.854698901088 0.387403848010 0.852049203618 0.386161174028 -0.006662893192 0.055373820041
0.060990000000 0.033744826900 0.015435215053 0.908492610954 -0.197917720241 0.908023758807 -0.196612635381 0.027923897274 0.020878012625
0.066989000000 0.021698921055 -0.027266521746 0.613457429675 -0.699085597849 0.612651441816 -0.696405801853 0.020535347530 -0.022440285050
0.072988000000 -0.010005992597 -0.038745610384 0.079761466772 -0.918267341051 0.080274997809 -0.917974972056 -0.010525886906 -0.037535367823
0.078987000000 -0.027445498028 -0.030075464309 -0.480662296758 -0.789465685833 -0.479336784757 -0.787579803587 -0.030250985432 -0.029907150096
0.084986000000 -0.034795429685 -0.029000912592 -0.851101349846 -0.348822606802 -0.850401454233 -0.349306312956 -0.037760052151 -0.027409049049
0.090985000000 -0.057178389494 -0.029251263122 -0.895971951700 0.226938418316 -0.893762428413 0.225294674235 -0.058550881539 -0.027874590365
0.096984000000 -0.086246999082 0.000220136940 -0.580397066550 0.711767821433 -0.580577860594 0.710941016279 -0.087701619095 -0.000312350803
0.102983000000 -0.079369094934 0.056517068126 -0.040598852380 0.918086246109 -0.042067800250 0.914812911162 -0.082540644531 0.056201981016
0.108982000000 -0.021475165571 0.091291428213 0.507140820146 0.754125433028 0.505385979651 0.754316871562 -0.024390052332 0.092581134774
0.114981000000 0.046971006656 0.065118760700 0.853997419287 0.307169254089 0.851184525553 0.308119766345 0.046425139794 0.066209615155
0.120980000000 0.068053169161 -0.005721364859 0.863875152120 -0.253738054686 0.864308113938 -0.252251614954 0.067525480020 -0.007131938242
0.126979000000 0.029170942963 -0.061818667727 0.550440981835 -0.718689413857 0.550356381971 -0.715788242064 0.026609874914 -0.063402244546
0.132978000000 -0.027216992728 -0.068720542063 0.018377074115 -0.902661448149 0.018961041577 -0.902485711773 -0.028690303908 -0.067909984220
0.138977000000 -0.063857193712 -0.045044195711 -0.525830899751 -0.741332324011 -0.524582466785 -0.739702098111 -0.060458471576 -0.045800757311
0.144976000000 -0.081875306220 -0.016596959631 -0.860535699221 -0.278838308972 -0.860237558700 -0.277988107554 -0.077563205680 -0.025320103645
0.150975000000 -0.091386835484 0.017610473864 -0.856731879103 0.291977144615 -0.852735490115 0.291411198001 -0.095689581174 0.002923168085
0.156974000000 -0.081789769745 0.064521647397 -0.506253467442 0.734294954571 -0.505522287532 0.731964204472 -0.096244465835 0.054570623234
0.162973000000 -0.032965454408 0.104036504714 0.025386497270 0.886087749367 0.022364281283 0.882733570553 -0.048303562427 0.105312329261
0.168972000000 0.042904881719 0.094666152809 0.533441181872 0.696812209955 0.531368726783 0.698658190932 0.035706681068 0.101099399701
0.174971000000 0.090213093496 0.025640772042 0.847944976204 0.253980436813 0.846536675242 0.255125917854 0.089516172115 0.028017140998
0.180970000000 0.069236662059 -0.056296935445 0.836339204351 -0.297381332568 0.836559930914 -0.296885440685 0.066993038889 -0.058105868068
0.186969000000 -0.001825334494 -0.094987682434 0.497892876297 -0.744633134501 0.497369399601 -0.742385632956 -0.005328542370 -0.094946406248
0.192968000000 -0.072167580565 -0.073161046369 -0.046476861923 -0.889864235344 -0.046326529214 -0.889700538862 -0.070548725912 -0.072564393689
0.198967000000 -0.104223720135 -0.018083732484 -0.570187705892 -0.685269237548 -0.568460026508 -0.682647907734 -0.098880606445 -0.025548759424
0.204966000000 -0.098401100939 0.033655721644 -0.854766282195 -0.206488727479 -0.852311717757 -0.206703790829 -0.100482070504 0.017790301108
0.210965000000 -0.073716507543 0.072209272518 -0.804880734362 0.337276702567 -0.802326099160 0.333078130346 -0.087376200531 0.059829033261
0.216964000000 -0.031557532072 0.099275516697 -0.448918683844 0.733865544555 -0.451806057318 0.732166241223 -0.045185792013 0.098571295005
0.222963000000 0.027984034925 0.097999403966 0.062780579891 0.863472000176 0.060841292903 0.862331885006 0.026339255094 0.099405912170
0.228962000000 0.080115839879 0.053714195263 0.561905958687 0.665381591110 0.560811894858 0.665332470978 0.083088699620 0.041717596235
0.234961000000 0.091538284008 -0.021604611420 0.859956172986 0.202243395577 0.855790102855 0.202402303840 0.081486407318 -0.043835907981
0.240960000000 0.043030583325 -0.090164969463 0.806162071321 -0.354520647093 0.805881344670 -0.351224428640 0.017402565878 -0.103248907887
0.246959000000 -0.044735776881 -0.103147791969 0.431560480204 -0.766195764113 0.433195096156 -0.762456269192 -0.066897704551 -0.098855559663
0.252958000000 -0.112801166954 -0.047813343548 -0.107227854058 -0.860436500624 -0.105604902566 -0.860197559852 -0.118245373398 -0.043419676062
0.258957000000 -0.119414638954 0.034093952783 -0.592998854554 -0.626827787800 -0.588843397418 -0.626245941372 -0.121952888811 0.021374405079
0.264956000000 -0.072714188569 0.091147284531 -0.837911818402 -0.156413601894 -0.836138696866 -0.160467405291 -0.093452776257 0.069849642186
0.270955000000 -0.008518679763 0.101138928079 -0.773180956020 0.363706244490 -0.773833679989 0.360010297463 -0.046224354212 0.095373781049
0.276954000000 0.038592366704 0.073355412152 -0.412224580982 0.749156843273 -0.415740460653 0.749182272235 0.008325019174 0.089874556715
0.282953000000 0.059097076955 0.033260596331 0.112202687051 0.859043271893 0.111012783718 0.858318764001 0.049887779998 0.052791206749
0.288952000000 0.062403148145 -0.009575147355 0.603762222690 0.621375600866 0.602778727690 0.622125611784 0.061948335558 -0.004422623715
0.294951000000 0.041460232844 -0.057780198231 0.858144485211 0.136149095200 0.855580237182 0.138230567349 0.033645793490 -0.060839093582
0.300950000000 -0.018244014702 -0.087996836670 0.761300568196 -0.397871200634 0.762092812329 -0.396216634058 -0.028885797850 -0.086402959959
0.306949000000 -0.093477598583 -0.063125519520 0.376494775707 -0.769178425306 0.376508235408 -0.766372496716 -0.095302428404 -0.063541860427
0.312948000000 -0.128954142458 0.017955252085 -0.149135786223 -0.833574995551 -0.145849964821 -0.833442387099 -0.130447256942 -0.000515426787
0.318947000000 -0.088910804650 0.101455786540 -0.611305380678 -0.587108614525 -0.608249331494 -0.587670424325 -0.114487318135 0.070254362251
0.324946000000 -0.001739542464 0.123683934523 -0.836193123429 -0.114585654352 -0.836656240948 -0.116833352125 -0.056587745181 0.110047957142
0.330945000000 0.063894686233 0.076971718193 -0.748896138511 0.404244881469 -0.748272379154 0.402409031818 0.007775232177 0.100812729933
0.336944000000 0.070778965152 0.013262924492 -0.361673305991 0.769320669091 -0.363173572221 0.768058952425 0.044465627954 0.057572803550
0.342943000000 0.045041213408 -0.021960239081 0.167593340701 0.837820141537 0.165156053936 0.835901405875 0.047234173339 0.010346613965
0.348942000000 0.023869268469 -0.036376314099 0.628574508422 0.570254099898 0.627252037341 0.571710877719 0.028478580075 -0.026591561679
0.354941000000 0.000974844346 -0.055091063748 0.846320107829 0.085213388703 0.843699235059 0.087139283126 -0.005967533069 -0.051224179998
0.360940000000 -0.048014792156 -0.062345687751 0.726325133248 -0.429674842601 0.727090765562 -0.427733049940 -0.056656552326 -0.053901891464
0.366939000000 -0.102187797139 -0.019642830464 0.331843776514 -0.778075972715 0.332798629251 -0.775325595255 -0.105036406133 -0.015651833226
0.372938000000 -0.102026463671 0.062698444617 -0.192243894683 -0.817407116091 -0.190459761824 -0.817580240972 -0.110342211118 0.054684814537
0.378937000000 -0.032329569638 0.115140424741 -0.640535198493 -0.547012563398 -0.637487591714 -0.545703258971 -0.058358665700 0.107827351584
0.384936000000 0.048317258976 0.090539971023 -0.834873022351 -0.060620949136 -0.832865498669 -0.063197214502 0.014571961928 0.101332566569
0.390935000000 0.071823329992 0.020688924304 -0.711708794021 0.445988404685 -0.711242730499 0.441171215076 0.051377402296 0.046025230365
0.396934000000 0.038345311389 -0.023632322623 -0.309084656413 0.776267301436 -0.312253369399 0.775116291682 0.034207917683 -0.004974652094
0.402933000000 0.006661585415 -0.022408034933 0.211712699739 0.813365804804 0.208766026269 0.812249981720 0.000395627247 -0.018172756007
0.408932000000 0.002817636701 -0.019155066058 0.650945158439 0.526661028678 0.648303784017 0.528559803684 -0.015884130960 -0.014978573468
0.414931000000 -0.010797349664 -0.036786486741 0.840233809593 0.036581982638 0.837150489897 0.040274813218 -0.029384546800 -0.021440848154
0.420930000000 -0.057142499847 -0.034310225358 0.692425108687 -0.467085307587 0.694230856336 -0.463710514418 -0.064244022327 -0.019215871697
0.426929000000 -0.089393290797 0.021942056526 0.279171349677 -0.787797609786 0.280919337639 -0.784232834125 -0.095712885374 0.022372931642
0.432928000000 -0.053519884777 0.089855911552 -0.239774212429 -0.791412110489 -0.235212539120 -0.790174998407 -0.077861592608 0.084210038391
0.438927000000 0.027935205481 0.095929789850 -0.659720005881 -0.498454254296 -0.652518306808 -0.500468886469 -0.012088540825 0.107917059195
0.444926000000 0.072380137998 0.031233630220 -0.821782342578 -0.014448883594 -0.821746983031 -0.022136351589 0.042645221445 0.066104460735
0.450925000000 0.041810719227 -0.029492435761 -0.677343357918 0.477104815935 -0.680767000736 0.471983993350 0.035518811050 0.006254520400
0.456924000000 -0.009742048742 -0.027733027971 -0.261780350128 0.783347347859 -0.265717877678 0.783835030787 -0.008024842861 -0.009107030064
0.462923000000 -0.018319332368 0.004854946964 0.256652910521 0.789559921180 0.251774374473 0.789008850685 -0.026951659952 0.014362249823
0.468922000000 0.002078392862 0.006376067078 0.671096618483 0.480674015061 0.668126550721 0.484830440096 -0.013241535579 0.023153414153
0.474921000000 -0.006481503185 -0.017953192366 0.828493536203 -0.012641403271 0.827823843924 -0.007405353328 -0.013302102486 0.003960696449
0.480920000000 -0.046735357318 -0.010135593906 0.652803664061 -0.498707782799 0.654688770589 -0.496456440026 -0.047310410064 0.001413188381
0.486919000000 -0.057125349115 0.043490477250 0.232173781762 -0.785626787906 0.232504759507 -0.782161109469 -0.068658601919 0.044097787519
0.492918000000 -0.006634733750 0.081520960048 -0.273926732125 -0.762972125180 -0.267430890472 -0.764584747597 -0.033254031209 0.089920995365
0.498917000000 0.051121881512 0.054449990308 -0.673194177139 -0.460365393182 -0.670116676736 -0.465045568852 0.027749234714 0.078837038958
0.504916000000 0.053237194234 -0.002837929308 -0.816000909125 0.027091711187 -0.818486132854 0.022941405954 0.043563746725 0.019808294833
0.510915000000 0.012541898855 -0.022046053789 -0.643538169135 0.511368448513 -0.645104703971 0.506889298128 -0.001104242844 -0.014967374906
0.516914000000 -0.005855143229 0.004634773340 -0.210530310898 0.786871534854 -0.217092171674 0.785144051817 -0.044201866983 0.012886453313
0.522913000000 0.019341940881 0.017421152805 0.295549168093 0.759430554385 0.288522216927 0.764503498952 -0.031732678978 0.058507765721
0.528912000000 0.037471503918 -0.013686803548 0.682393386417 0.437825309551 0.686599079303 0.446800011566 0.011905926736 0.059609024229
0.534911000000 0.008874548275 -0.048126117838 0.814365961730 -0.052782013448 0.819640354284 -0.052508980731 0.025910428539 0.021769196026
0.540910000000 -0.038338683756 -0.036299384109 0.620605339389 -0.522818735614 0.621582169559 -0.525110550027 -0.002824585834 -0.000256820164
0.546909000000 -0.047738507098 0.007730108479 0.190271141631 -0.790741955544 0.191999810055 -0.788514102781 -0.028116293803 0.016917838769
0.552908000000 -0.019325001348 0.028456457667 -0.312327182433 -0.746654119527 -0.309227334831 -0.749165475414 -0.020609230692 0.039996311821
0.558907000000 -0.001092961612 0.014458756781 -0.697360109247 -0.417215385383 -0.696141591969 -0.420274485968 -0.003646768991 0.037551175131
0.564906000000 -0.012915469297 0.004589627776 -0.801617071679 0.077939050634 -0.803774723406 0.075022764938 -0.009025759518 0.025654335201
0.570905000000 -0.020295166125 0.023210206566 -0.601603902131 0.536077361638 -0.603945869544 0.532888911874 -0.023152543046 0.036700831651
0.576904000000 0.004048401375 0.038815297418 -0.170647890167 0.783842673981 -0.175714388250 0.785879980615 -0.012245021431 0.061370057593
0.582903000000 0.033521193150 0.019266957522 0.329392692401 0.740761491635 0.327430601197 0.743678320271 0.022424777475 0.062923773586
0.588902000000 0.029743569073 -0.020302662737 0.704608648837 0.398114036680 0.705893221483 0.399727748402 0.043679960064 0.028593887362
0.594901000000 -0.007177474617 -0.036478067730 0.804834386228 -0.100490788567 0.802413503209 -0.099129057059 0.023871379449 -0.007514147674
0.600900000000 -0.036219353885 -0.015591900137 0.582709123408 -0.553499237211 0.584376340873 -0.549963028113 -0.014353560191 -0.009416914201
0.606899000000 -0.037012716414 0.011132872355 0.142927275438 -0.793361284842 0.147476443581 -0.790311794666 -0.033667307491 0.015746919839
0.612898000000 -0.027054662391 0.023591741774 -0.352906495345 -0.719255274424 -0.349598036333 -0.721462112461 -0.028973805421 0.038291367135
0.618897000000 -0.022097426022 0.033075669903 -0.711014014360 -0.370706067176 -0.707919380940 -0.373011472939 -0.020076710987 0.048918103260
0.624896000000 -0.008521798952 0.049616328243 -0.785632205844 0.118803552023 -0.786916995076 0.114822165059 -0.013214957850 0.059987426341
0.630895000000 0.025013558259 0.053072537977 -0.568504511814 0.562166332579 -0.571132834800 0.558810725768 0.005853015167 0.073411437182
0.636894000000 0.056319146150 0.024401747263 -0.126795424183 0.789261763637 -0.128875584746 0.790063510665 0.039608481983 0.070666781057
0.642893000000 0.054729191101 -0.022311830999 0.371513434879 0.715063618573 0.368379787770 0.713381134476 0.067945758910 0.037982118008
0.648892000000 0.018627603696 -0.052591755883 0.719068421466 0.350333060288 0.715748630269 0.351567890929 0.061765767152 -0.011700184479
0.654891000000 -0.023370477276 -0.048218171178 0.786946593411 -0.144904816381 0.784042627025 -0.140128741849 0.019812585770 -0.041391887289
0.660890000000 -0.050310094230 -0.023342683495 0.543692955557 -0.578235596495 0.546948492872 -0.574556004787 -0.030091397458 -0.032725250078
0.666889000000 -0.061777088231 0.010193632441 0.096268851719 -0.790430909026 0.100528739840 -0.788089588510 -0.060175419750 0.005555470043
0.672888000000 -0.053056019901 0.050974341759 -0.387532882869 -0.688516011256 -0.383842064728 -0.690698341166 -0.058229014724 0.052362279582
0.678887000000 -0.013061121300 0.083368218979 -0.720837232115 -0.327492384205 -0.717653558438 -0.330463979777 -0.028930240073 0.087015032577
0.684886000000 0.047240125351 0.077087606409 -0.770365106377 0.161276524986 -0.770892397026 0.157337524475 0.014575109703 0.096718872628
0.690885000000 0.086068165607 0.023497395963 -0.523720750976 0.593886337213 -0.529035579609 0.585377742100 0.055835875346 0.078512618082
0.696884000000 0.070647331119 -0.040762652602 -0.077680286620 0.782947117110 -0.082625635070 0.782395201184 0.077590881906 0.041199700732
0.702883000000 0.019126133713 -0.068558822602 0.402859810786 0.679364100527 0.396836604155 0.681811392900 0.074568447342 -0.003161682873
0.708882000000 -0.025943751005 -0.057335546263 0.722413731870 0.306969728965 0.721560602586 0.312176394146 0.045257648783 -0.040012583035
0.714881000000 -0.050919376786 -0.034272240402 0.767504168029 -0.182677013673 0.767984794675 -0.179085480817 -0.005508080841 -0.054476853932
0.720880000000 -0.071585517306 -0.006015279685 0.507031576745 -0.599082843016 0.509219931133 -0.596881638884 -0.061464500412 -0.029389601495
0.726879000000 -0.080268633257 0.044991270573 0.052426435031 -0.784609326158 0.054809521070 -0.781502912930 -0.088912142375 0.034554878828
0.732878000000 -0.041307137970 0.104635482593 -0.420489675967 -0.654595204786 -0.414983885582 -0.655910984359 -0.060581426434 0.104617738793
0.738877000000 0.045734212820 0.117848122542 -0.724300329458 -0.279044600525 -0.719269902181 -0.284649508911 0.011659271467 0.135094057059
0.744876000000 0.117918417740 0.050981410770 -0.743346990108 0.196595483702 -0.745785472672 0.188717645916 0.081084702914 0.105060511265
0.750875000000 0.107266829525 -0.048096668975 -0.489432829575 0.597782730445 -0.497293399219 0.593909750479 0.105251949024 0.041116273250
0.756874000000 0.030636719693 -0.092845889172 -0.043947848029 0.771554576798 -0.049574564064 0.777331808739 0.085179781712 -0.009390262320
0.762873000000 -0.034060332029 -0.066070463155 0.426096889966 0.654520674750 0.426570120523 0.658197634533 0.051252963318 -0.032470207643
0.768872000000 -0.047093616048 -0.024379336269 0.731123948798 0.271901027123 0.732419539356 0.272806056679 0.015898148941 -0.040610954410
0.774871000000 -0.046267131733 -0.008991551751 0.752037806548 -0.220715613468 0.750197226364 -0.217082667718 -0.027028329327 -0.032488519890
0.780870000000 -0.064680383791 0.012114991061 0.466649588991 -0.620114952915 0.470628794782 -0.615583095678 -0.065831783407 0.011167691964
0.786869000000 -0.062780578204 0.070520993462 0.006574582992 -0.771047492515 0.013641371042 -0.770054883291 -0.061329841005 0.084525199742
0.792868000000 0.007083249254 0.119811600908 -0.440788364798 -0.618313758832 -0.436083771358 -0.624143227719 0.005465537290 0.136192735974
0.798867000000 0.105804936181 0.083354739414 -0.718872253480 -0.246412109814 -0.719054421487 -0.254218740509 0.092322396705 0.118355510960
0.804866000000 0.132740726170 -0.028414610256 -0.727810969190 0.219309912598 -0.736802411635 0.216138872387 0.133242242337 0.044799619996
0.810865000000 0.055770391564 -0.112793327694 -0.465730719140 0.614147660001 -0.469783755987 0.619805965417 0.110936440763 -0.023346597080
0.816864000000 -0.046658594303 -0.097221927267 -0.009390493331 0.773092327849 -0.004383283135 0.777935443333 0.064747684704 -0.048160039766
0.822863000000 -0.081231545604 -0.022421681955 0.454769461314 0.633364677346 0.459266222890 0.624683248231 0.031380929810 -0.047642277008
0.828862000000 -0.055944387572 0.022002073393 0.741234187762 0.230871575950 0.734198833757 0.228449009507 0.000915855374 -0.046965470742
0.834861000000 -0.042571581016 0.028276532048 0.730767952265 -0.258780037308 0.725363805799 -0.250086750213 -0.042759760927 -0.026923577982
0.840860000000 -0.047944396101 0.055220013068 0.426562301508 -0.631117787153 0.433411962813 -0.625314226036 -0.068294109925 0.039088384809
0.846859000000 -0.010748245618 0.106487188457 -0.022768386879 -0.756345678528 -0.015318181202 -0.756712942223 -0.024854307716 0.115737356777
0.852858000000 0.081599985976 0.105898127486 -0.454916229013 -0.599795952963 -0.452806847263 -0.606238227649 0.072925058284 0.129406140773
