# GHZ S RI R 50.000000000000
0.001000000000 0.004340691379 0.000377911638 1.001503934753 -0.050880161600 0.991276005943 -0.054655445098 0.009242691218 0.000201116664
0.006999000000 0.045338613002 -0.034967338118 0.974831290466 -0.356455243351 0.945949496995 -0.356995467441 0.045141511649 -0.035773595083
0.012998000000 -0.001187596328 -0.022702876910 0.803583159786 -0.570574339266 0.804153663412 -0.570245853905 -0.000974217176 -0.022829992555
0.018997000000 -0.016873194799 -0.028745493376 0.614176575237 -0.777184854441 0.616655407290 -0.773582207920 -0.016301833938 -0.029177105591
0.024996000000 -0.028888247669 -0.025196818278 0.374055597283 -0.905590629366 0.374060594436 -0.905696569402 -0.028128041702 -0.026133259341
0.030995000000 -0.040054017141 -0.015258549096 0.110864695890 -0.975569898945 0.113265106238 -0.975009640805 -0.039651512159 -0.016361063099
0.036994000000 -0.043719344010 -0.001379884758 -0.162692209075 -0.962436661011 -0.162326881206 -0.962152819706 -0.043797251268 -0.002415028100
0.042993000000 -0.039014547076 0.012601927495 -0.428422844652 -0.881816010481 -0.427186628132 -0.879423930513 -0.039821955416 0.011645207723
0.048992000000 -0.028344353270 0.020999912143 -0.647664573272 -0.727680086593 -0.647420760424 -0.727230547217 -0.029743588200 0.020486497593
0.054991000000 -0.014692622923 0.022378494495 -0.826061148865 -0.523576166284 -0.823898132414 -0.521776863066 -0.016347606302 0.022433586674
0.060990000000 -0.002891544163 0.015053128683 -0.933858595382 -0.270071457490 -0.932996947159 -0.270886704680 -0.004476949500 0.015747224591
0.066989000000 0.003205439930 0.002501725084 -0.976255261241 -0.000516079586 -0.973581488334 -0.001939947770 0.002006280507 0.003861572855
0.072988000000 0.000487628226 -0.011503621346 -0.932340109139 0.268025623397 -0.932072471293 0.266976786596 -0.000370484907 -0.009866994525
0.078987000000 -0.009691942384 -0.022180512644 -0.824696304021 0.517566676956 -0.822878377361 0.515212608794 -0.010030798412 -0.020408301457
0.084986000000 -0.024722739864 -0.025228338596 -0.645800619266 0.720988358184 -0.646477106625 0.719634606547 -0.024689813411 -0.023374307477
0.090985000000 -0.039630642523 -0.019632722157 -0.423200088341 0.874689798811 -0.423408294867 0.871786195111 -0.039237593672 -0.017848644040
0.096984000000 -0.049039720623 -0.006262565682 -0.163338286270 0.951939713445 -0.164961068850 0.951217752242 -0.048198464984 -0.004498633172
0.102983000000 -0.050181583016 0.010063159239 0.107534066202 0.963556390995 0.105095909936 0.961124325204 -0.048921648394 0.011873789137
0.108982000000 -0.042103501512 0.024202323641 0.367019918340 0.891071208061 0.365338757714 0.891363722373 -0.040214232816 0.025770873743
0.114981000000 -0.027927864671 0.031998626827 0.600762876790 0.757830783711 0.598012984630 0.756872648752 -0.025578369669 0.032983671205
0.120980000000 -0.012107065811 0.030232965094 0.782573602661 0.558630012216 0.781637122452 0.560022137993 -0.009537067076 0.030272215192
0.126979000000 -0.000091322396 0.020567189533 0.910097714560 0.321840202051 0.907444537474 0.322803496167 0.002189664821 0.019460522243
0.132978000000 0.003712040978 0.005773182296 0.958647811211 0.058051435585 0.958365649751 0.058967735689 0.005031304394 0.003965262436
0.138977000000 -0.001361372902 -0.008390259871 0.941474351097 -0.210246550683 0.939263219912 -0.208996367903 -0.001232271970 -0.010569871040
0.144976000000 -0.013964468622 -0.016583609517 0.842032274587 -0.460114069898 0.841826789628 -0.459207534944 -0.015249402802 -0.018273186246
0.150975000000 -0.029048099801 -0.016557915371 0.683730903615 -0.678122386968 0.682316263816 -0.675583749552 -0.031119476374 -0.017179978229
0.156974000000 -0.041456964158 -0.007579775044 0.466009764208 -0.835304449288 0.466735570994 -0.834405601866 -0.043537433597 -0.006823024253
0.162973000000 -0.047113134885 0.006659329924 0.217194216968 -0.934437286367 0.218555287081 -0.931327885751 -0.048616276526 0.008606302893
0.168972000000 -0.043697657700 0.021753430497 -0.047814535099 -0.951278306837 -0.046467588286 -0.951241079798 -0.043992773534 0.024159946186
0.174971000000 -0.033103029372 0.032647375432 -0.309152578330 -0.904037487865 -0.307082630876 -0.902681435611 -0.032123389985 0.034780278282
0.180970000000 -0.018509795605 0.035423431329 -0.542760127215 -0.780496429044 -0.541814269933 -0.781246820683 -0.016691015419 0.036565242390
0.186969000000 -0.005443999482 0.030279485226 -0.740700701232 -0.603793098545 -0.738149009844 -0.603288071714 -0.003442390472 0.030480047276
0.192968000000 0.001865033194 0.019249862945 -0.875357910227 -0.374000657600 -0.874815631886 -0.374902802877 0.003267303818 0.018518644894
0.198967000000 0.002033732175 0.006908047501 -0.948862654967 -0.117480893031 -0.946478620028 -0.117854598235 0.002413767169 0.005524368436
0.204966000000 -0.004818081373 -0.002603568267 -0.938834521177 0.149960579441 -0.938730908036 0.148306251190 -0.005612918461 -0.003669296472
0.210965000000 -0.015337791506 -0.006392322041 -0.862654748202 0.405220900811 -0.861292991725 0.402731508366 -0.017022367632 -0.006528600243
0.216964000000 -0.025710231957 -0.003058252152 -0.711992402163 0.623248860299 -0.713292659658 0.621876369571 -0.027490282673 -0.001985850631
0.222963000000 -0.032140452288 0.005096711095 -0.514543021964 0.796437750332 -0.514731662286 0.794148262601 -0.033461282429 0.007368345540
0.228962000000 -0.032594866926 0.015239553956 -0.274654626746 0.902256574556 -0.276008465138 0.901843540717 -0.032864283408 0.018030753597
0.234961000000 -0.027849236564 0.023604858856 -0.017107858199 0.947422834685 -0.017989003694 0.945317178047 -0.027228147826 0.026714296594
0.240960000000 -0.019674773627 0.027946682054 0.243613295759 0.912025398426 0.242685927170 0.912405129294 -0.018305922456 0.030842287366
0.246959000000 -0.011114379200 0.027835868604 0.489518066336 0.813785784698 0.486671291367 0.812680544931 -0.009066120827 0.030280265535
0.252958000000 -0.004200747187 0.023355502931 0.691725391571 0.644282551789 0.691054636290 0.644864002147 -0.001912561013 0.025701843880
0.258957000000 -0.000410992892 0.016678037622 0.847072701991 0.428559517845 0.844573653664 0.428871156851 0.002318249784 0.019180562549
0.264956000000 -0.000678495727 0.009357377671 0.927264603176 0.176304521902 0.926864106502 0.177390382075 0.002778470132 0.012362097169
0.270955000000 -0.004252148297 0.003697142282 0.942741933381 -0.086071179984 0.940409105212 -0.086086173699 0.000854070274 0.006492218087
0.276954000000 -0.010040876072 0.000558489517 0.876600237918 -0.341442986978 0.876413994129 -0.340441951368 -0.002818642453 0.002540843775
0.282953000000 -0.015879014701 0.000426084877 0.752015105987 -0.571028217552 0.749867718573 -0.569182347043 -0.006952099218 0.000398933275
0.288952000000 -0.021215217155 0.002958567273 0.562458157204 -0.753014257949 0.562386746368 -0.751944413101 -0.011373826556 -0.000289623172
0.294951000000 -0.025493519624 0.007398220874 0.334851991758 -0.883143223994 0.335037102523 -0.879642768304 -0.016044527250 0.000575493740
0.300950000000 -0.027371779424 0.013816719640 0.077497057774 -0.936832166039 0.078728535678 -0.935652755521 -0.020220979915 0.003652663028
0.306949000000 -0.026605181560 0.020918616306 -0.184589182993 -0.925758079667 -0.183022840013 -0.923265434273 -0.023000417853 0.008479803145
0.312948000000 -0.022048953005 0.027597913060 -0.431426121110 -0.833727528778 -0.429570174256 -0.834057473721 -0.023001023573 0.014519700099
0.318947000000 -0.014486234541 0.032027818204 -0.646710309877 -0.685048997713 -0.644709197697 -0.683970416727 -0.019865755829 0.020490983794
0.324946000000 -0.005120802392 0.032266908057 -0.806458139192 -0.476783711630 -0.805981200173 -0.477788639733 -0.013579568920 0.023931247571
0.330945000000 0.004073752459 0.028225194370 -0.909950765764 -0.237439189564 -0.907946975420 -0.237173231220 -0.005670642622 0.023741766638
0.336944000000 0.010125631358 0.019295653780 -0.935382817886 0.024038832288 -0.935389621370 0.022603699904 0.001164177627 0.018614946328
0.342943000000 0.011300736672 0.007925200479 -0.896072612591 0.282276298738 -0.894172985033 0.280623062183 0.004514810246 0.009954785138
0.348942000000 0.005947435862 -0.002852427994 -0.779032087690 0.515684774511 -0.779297741359 0.515078455897 0.001939948099 0.000231118766
0.354941000000 -0.004839221211 -0.009765684856 -0.608790347120 0.713885332861 -0.608413470744 0.711215638647 -0.006357787155 -0.007095153533
0.360940000000 -0.018259930163 -0.009558398081 -0.386317131311 0.849110690069 -0.387104273697 0.848187225022 -0.018364252436 -0.008291851616
0.366939000000 -0.030465770371 -0.001791526421 -0.138363332435 0.926409757334 -0.138529448683 0.924067988980 -0.030428548714 -0.002223072459
0.372938000000 -0.036365875587 0.012119382587 0.122809459099 0.923435651420 0.121399756995 0.923561449166 -0.037073643769 0.010807750013
0.378937000000 -0.034156640680 0.027989116825 0.373782594431 0.857517812246 0.372609168221 0.855624731890 -0.035528879260 0.026328312005
0.384936000000 -0.022915138072 0.040404361536 0.593442554744 0.716549315969 0.592395662227 0.717333379474 -0.025036750877 0.039201343180
0.390935000000 -0.006228788119 0.045261345146 0.771101067583 0.526999454467 0.768711421334 0.526259284332 -0.008398463185 0.044826792903
0.396934000000 0.010732222419 0.039794295866 0.881326864965 0.291432711503 0.880838565296 0.292271407032 0.009052294309 0.039923625137
0.402933000000 0.022637535774 0.025755455285 0.930924376399 0.037598464122 0.928635659231 0.038762560723 0.021830396695 0.025842265896
0.408932000000 0.024488567668 0.007205999724 0.900193695646 -0.218902179652 0.900345007022 -0.217601501038 0.024147441909 0.006393001192
0.414931000000 0.015645602651 -0.009724304988 0.808653046451 -0.460588507152 0.807274035568 -0.458561579236 0.015175559327 -0.011465625695
0.420930000000 -0.001609273978 -0.018371939094 0.647643482761 -0.661960760395 0.648437200170 -0.660627933501 -0.002970562122 -0.020753446377
0.426929000000 -0.021242224328 -0.015968000448 0.441629998206 -0.818410886521 0.441424902135 -0.816042801729 -0.023633118019 -0.018466122889
0.432928000000 -0.036002460326 -0.002338588169 0.197090813570 -0.903597546311 0.197927965640 -0.903209244207 -0.039357700555 -0.004059738932
0.438927000000 -0.040888250835 0.017789022040 -0.059908759167 -0.926328440090 -0.059220808806 -0.923933464061 -0.044476580118 0.017397608363
0.444926000000 -0.033223090960 0.037168978383 -0.312343960442 -0.868007899081 -0.310329638646 -0.868009381490 -0.035872384830 0.038234608018
0.450925000000 -0.015938539754 0.049558718161 -0.540894267592 -0.750704355362 -0.537791790820 -0.749768018726 -0.016595665048 0.050972083321
0.456924000000 0.005463272153 0.049963113360 -0.721336775898 -0.570085130134 -0.720707251209 -0.571467718123 0.006914546369 0.050320946251
0.462923000000 0.023524328763 0.038586237859 -0.854498949170 -0.352026315941 -0.851845912886 -0.352494990631 0.026607635939 0.035982595419
0.468922000000 0.031538644892 0.019297103065 -0.914396341998 -0.103381136422 -0.913999640293 -0.104456354444 0.034157506664 0.012517683245
0.474921000000 0.027492213360 -0.000699503415 -0.912870937259 0.153618752375 -0.910093199328 0.152107902165 0.027703756386 -0.011599278347
0.480920000000 0.012974474776 -0.014010895795 -0.831496665597 0.398967645790 -0.830247719893 0.397133403710 0.007913549685 -0.027873396849
0.486919000000 -0.006431988998 -0.015913616243 -0.693528373397 0.613966980215 -0.688942122303 0.612169077202 -0.018073296985 -0.030638047279
0.492918000000 -0.022362827672 -0.005713246097 -0.489784160296 0.779265211179 -0.490370457919 0.775258876830 -0.041819575354 -0.018169597254
0.498917000000 -0.029060973135 0.012055296727 -0.255826168219 0.885910065996 -0.257869644861 0.880423261455 -0.055240249225 0.005490283190
0.504916000000 -0.023160214493 0.030575267625 -0.001574441908 0.914827875217 -0.006877548861 0.913532844918 -0.053622601633 0.032982461436
0.510915000000 -0.006741246124 0.042309330507 0.248779748876 0.883068975857 0.241682786167 0.883482984425 -0.037609496856 0.055177134036
0.516914000000 0.014276957609 0.041739318851 0.478102422042 0.777117200555 0.474855690625 0.782063623390 -0.012783158664 0.065043696274
0.522913000000 0.032013526809 0.029370276318 0.677232563791 0.619792331999 0.675935764345 0.623793492776 0.012793375529 0.061150493670
0.528912000000 0.040006243758 0.008189462270 0.818330031106 0.409649528686 0.821752075727 0.413625656377 0.030685590836 0.044739299863
0.534911000000 0.035509582924 -0.014614220657 0.905888407225 0.167968420494 0.908032713140 0.169331541234 0.037064884639 0.022698664481
0.540910000000 0.018447548883 -0.031886058090 0.912841852910 -0.089328188332 0.916157527603 -0.090541681518 0.030523731956 0.002589399391
0.546909000000 -0.005262002664 -0.037556246132 0.854801307174 -0.340495393697 0.854983077606 -0.341462014917 0.015197354623 -0.009060444186
0.552908000000 -0.028186365040 -0.028993060114 0.723546861263 -0.559306512478 0.723180051303 -0.560845044067 -0.002413476896 -0.009124630480
0.558907000000 -0.042640166574 -0.010113666173 0.544170406585 -0.738420726424 0.540806753885 -0.737439726407 -0.015096590148 0.000471005439
0.564906000000 -0.044411453968 0.012935064262 0.318633622521 -0.854633473619 0.317566913606 -0.853676765449 -0.018851970955 0.014610987985
0.570905000000 -0.034358498625 0.031926587614 0.073011410375 -0.914509058798 0.072869988151 -0.910594077967 -0.013754939392 0.027896836430
0.576904000000 -0.016426100831 0.041950174266 -0.181428612419 -0.896563747359 -0.179810215636 -0.895142572631 -0.001974658544 0.034903207950
0.582903000000 0.002460353282 0.041190384900 -0.424889949374 -0.816767479843 -0.421674093148 -0.814983389543 0.011669693713 0.033963565758
0.588902000000 0.017038170109 0.030518121522 -0.632750261757 -0.664085244365 -0.630713950703 -0.665286137554 0.022052455433 0.025339691038
0.594901000000 0.022749859273 0.014959188563 -0.795998215776 -0.464480079984 -0.792516497871 -0.464808282411 0.025799371655 0.012593869121
0.600900000000 0.018340623571 -0.000050571239 -0.887377455987 -0.223474947719 -0.886646550170 -0.225604943092 0.021241859091 0.000379361135
0.606899000000 0.007257423321 -0.008799265817 -0.917125518284 0.031315628942 -0.914107858844 0.028614668740 0.011666603874 -0.006536339568
0.612898000000 -0.006077360751 -0.008910141705 -0.866846762354 0.279717883045 -0.866334073269 0.277887180641 0.000468338319 -0.006473543770
0.618897000000 -0.015710073877 -0.002183874739 -0.759794152868 0.508634083425 -0.758408057688 0.505171488690 -0.007882527360 -0.000863537585
0.624896000000 -0.019191811302 0.008276190221 -0.588471014335 0.694056199038 -0.589444731328 0.692357969792 -0.011266894016 0.007712988122
0.630895000000 -0.016657231631 0.017851706159 -0.377357508233 0.834396226125 -0.378104280339 0.830483955860 -0.009564053130 0.015772751320
0.636894000000 -0.009240009659 0.023987541774 -0.132020225062 0.902232167644 -0.134313878485 0.901498217842 -0.004249327660 0.021250310528
0.642893000000 -0.000823639702 0.025214863787 0.123572830356 0.908597133159 0.121408447687 0.906061742890 0.002696652081 0.023129763861
0.648892000000 0.006316883080 0.021518337961 0.368438765868 0.834766729127 0.366732286943 0.834416655884 0.009073051515 0.021086277555
0.654891000000 0.009724320239 0.015828619211 0.587627485295 0.702507699446 0.584569281647 0.701426712102 0.012891694259 0.017014071082
0.660890000000 0.009296530731 0.010125655678 0.754256847256 0.508708135450 0.752733998957 0.509629938708 0.013825466939 0.012241270937
0.666889000000 0.007175163419 0.006937794489 0.868014062397 0.281907824991 0.864824056021 0.283293341104 0.013267924989 0.008526777470
0.672888000000 0.004338074360 0.005821194152 0.906408802358 0.032381760958 0.906145840463 0.034618779973 0.011628644952 0.005924500584
0.678887000000 0.003030933315 0.005758530855 0.884434886356 -0.218008260197 0.882576261977 -0.215747479737 0.009963614337 0.003806814432
0.684886000000 0.002590592790 0.005666034183 0.785773285746 -0.451453272187 0.786402520115 -0.450141621566 0.007537923088 0.002236420946
0.690885000000 0.002028886253 0.004717463738 0.628460921740 -0.660305796065 0.632402642673 -0.652943259252 0.004437464464 0.000908660188
0.696884000000 0.000627656219 0.002416841336 0.427152235659 -0.798614813694 0.428829635741 -0.798561379532 0.000532501608 0.001615560140
0.702883000000 -0.003042306753 0.001523266460 0.190984469231 -0.889426970315 0.193146675416 -0.886886659586 -0.003756030374 0.004379174558
0.708882000000 -0.007517210632 0.002848599200 -0.061931382465 -0.902160900756 -0.059993749739 -0.902343861493 -0.006139301633 0.009810572249
0.714881000000 -0.011569430062 0.007492329149 -0.311302794459 -0.853247529255 -0.308083748951 -0.852135034147 -0.005705247879 0.017264942299
0.720880000000 -0.012437697008 0.015088291356 -0.530482881985 -0.730471533824 -0.528367655434 -0.731559956286 -0.000745993073 0.024342430251
0.726879000000 -0.008289865939 0.023073860163 -0.712935106900 -0.559606074276 -0.711470201271 -0.558515407932 0.008680161047 0.028540095057
0.732878000000 0.000086590703 0.028150359725 -0.834652512506 -0.338287731982 -0.835059498970 -0.339604616739 0.020083258446 0.026978008389
0.738877000000 0.011498976567 0.027302985989 -0.899765121153 -0.094962453474 -0.897952381074 -0.097021601634 0.030488393433 0.019081057441
0.744876000000 0.021358865353 0.020048708718 -0.886160319320 0.153957731843 -0.886503633478 0.153107640347 0.035066455770 0.006312055849
0.750875000000 0.025981910622 0.007646223027 -0.813567314749 0.393627432804 -0.811929374888 0.391936437805 0.032383866963 -0.008114892841
0.756874000000 0.022492324464 -0.005767425388 -0.670626284361 0.598865372679 -0.670912366931 0.598071012324 0.021968071290 -0.018733038158
0.762873000000 0.011625231761 -0.015424592341 -0.482057855817 0.764376898406 -0.481818340469 0.761484110293 0.006803027754 -0.021968991279
0.768872000000 -0.003102909956 -0.017150760061 -0.251200381304 0.863672092921 -0.252914285103 0.862587508767 -0.007201858076 -0.016027302230
0.774871000000 -0.016570719389 -0.009779682779 -0.002501827583 0.903651722744 -0.004378424856 0.901224916354 -0.015423918509 -0.002678320225
0.780870000000 -0.023397767109 0.003975756054 0.245619486494 0.864111008002 0.243530296497 0.864103371976 -0.013874988102 0.013213989754
0.786869000000 -0.021161575614 0.020065988307 0.475837191713 0.765549902234 0.473910091004 0.765028167441 -0.002474475801 0.025665852129
0.792868000000 -0.009476284305 0.031879604336 0.663838981823 0.602386116115 0.664048183107 0.602758514875 0.014636298016 0.028565281424
0.798867000000 0.007399212704 0.034624584845 0.807383491266 0.399213901034 0.805253092120 0.397807656874 0.030927984470 0.020902751002
0.804866000000 0.022943791926 0.026550771802 0.882752324665 0.161559020671 0.881059368897 0.160673739300 0.040100085079 0.004061792141
0.810865000000 0.031020789478 0.010623150515 0.897920015311 -0.088283190910 0.893813448792 -0.087707441012 0.038110101381 -0.016210737354
0.816864000000 0.027707521528 -0.007319346372 0.835761485674 -0.331744982625 0.833737452210 -0.329642598733 0.023994264202 -0.032286465430
0.822863000000 0.014018205072 -0.020189435886 0.716672547358 -0.549400857903 0.712112996763 -0.547627259156 0.002686785684 -0.038030155299
0.828862000000 -0.005415020712 -0.022508578666 0.529685382116 -0.725684866699 0.530692749771 -0.721452752299 -0.019612853394 -0.030162954851
0.834861000000 -0.023367766595 -0.012624018957 0.310137028492 -0.845887836660 0.311439575187 -0.841572732461 -0.033727406639 -0.009939106495
0.840860000000 -0.032338231624 0.007038483704 0.064929344049 -0.891984698381 0.067520383890 -0.891502183529 -0.033386013819 0.015172551453
0.846859000000 -0.028298082311 0.029725823615 -0.182703274030 -0.878970783833 -0.180355192195 -0.876031215901 -0.019077286361 0.036384019692
0.852858000000 -0.011200506239 0.046362964994 -0.414236842299 -0.791474956487 -0.411875041203 -0.790784743954 0.005328398602 0.045938175470
