# GHZ S RI R 50.000000000000
0.001000000000 0.016143326076 -0.000419832972 0.986974515215 -0.058876491802 0.999479413399 -0.054152599178 0.007873416775 -0.000309198288
0.007998000000 -0.001222193520 -0.019450995601 0.878199687842 -0.429729537139 0.877362523377 -0.432421983590 -0.001157594264 -0.019335801600
0.014996000000 -0.014553588903 -0.026005034544 0.644678303319 -0.723979738558 0.641947597793 -0.727183929480 -0.015541795656 -0.024806346808
0.021994000000 -0.031102097087 -0.024099638136 0.320513515185 -0.910312369076 0.316735760195 -0.911650602116 -0.031799909930 -0.021942482885
0.028992000000 -0.043780266965 -0.011208933059 -0.046025432538 -0.961013194860 -0.049348083271 -0.960876284549 -0.043526521496 -0.008369069242
0.035990000000 -0.044449602716 0.007125901855 -0.406615744815 -0.869647644000 -0.408544705350 -0.868426361203 -0.042947929674 0.009783752647
0.042988000000 -0.032435252290 0.020995789172 -0.704321766968 -0.650956497423 -0.705617536013 -0.649469982865 -0.030248637851 0.022622744273
0.049986000000 -0.014146657016 0.022025434344 -0.897908181430 -0.334167703420 -0.898814567053 -0.332967667299 -0.012629152247 0.022372478209
0.056984000000 -0.000819658811 0.009407816115 -0.955287156087 0.032225841317 -0.955676087243 0.033771515392 -0.000832361013 0.009325877975
0.063982000000 -0.000818596626 -0.009414161923 -0.870636158063 0.391922098012 -0.870036492468 0.393435074889 -0.002174786262 -0.008748919448
0.070980000000 -0.015182662898 -0.023038643637 -0.655796308901 0.691398296661 -0.654428554299 0.692782006635 -0.017062002863 -0.020460458394
0.077978000000 -0.035885896896 -0.022084917734 -0.343856926572 0.887427376020 -0.342295893832 0.887720689390 -0.036811678941 -0.017663203062
0.084976000000 -0.050222233898 -0.006027701192 0.018592284816 0.949691993579 0.019547807168 0.950017560695 -0.049240009518 -0.000885324725
0.091974000000 -0.049254628681 0.015755531527 0.376818586039 0.870037650821 0.377953613479 0.869884478000 -0.046128281516 0.020268214105
0.098972000000 -0.032992935523 0.030414626430 0.677519131927 0.661535121085 0.678695528943 0.661090615328 -0.028742474331 0.033377058218
0.105970000000 -0.011365714600 0.028767086640 0.878588064019 0.356167111168 0.879648852376 0.355002941005 -0.007078786840 0.029979544891
0.112968000000 0.002435592781 0.012022637420 0.945668783103 -0.002859141170 0.945984997827 -0.004379832522 0.005431454179 0.011952407412
0.119966000000 -0.000816505877 -0.009782191914 0.872885990513 -0.361300395250 0.872687461556 -0.362637253565 0.000650024119 -0.009789093431
0.126964000000 -0.019377538431 -0.022514728537 0.669094177131 -0.665277994581 0.668564877403 -0.666146898054 -0.018894992084 -0.021489515377
0.133962000000 -0.042112568237 -0.018026148975 0.365531033343 -0.867363245376 0.364968638732 -0.868050410105 -0.041460245885 -0.015619738293
0.140960000000 -0.055210048103 0.001604062099 0.009864685087 -0.939196333039 0.009164198641 -0.940018545460 -0.053587567346 0.004565536247
0.147958000000 -0.051008157997 0.024893553818 -0.345120286162 -0.872270752744 -0.345621802572 -0.872771970112 -0.048258304666 0.027821174055
0.154956000000 -0.032402244753 0.038461272657 -0.648536114364 -0.676944491018 -0.649948410632 -0.676535872040 -0.028799624509 0.040586440206
0.161954000000 -0.010196945326 0.035439457505 -0.856427329729 -0.381121096792 -0.857465908817 -0.380456701417 -0.006579051308 0.036284459763
0.168952000000 0.002826938337 0.018369206773 -0.936689127246 -0.027587178753 -0.937238094554 -0.026395819059 0.005766759558 0.018346920582
0.175950000000 -0.000396326884 -0.002010119196 -0.876092861070 0.329144975975 -0.875992323845 0.330402923584 0.001991194899 -0.002214918076
0.182948000000 -0.016773031906 -0.012723033380 -0.684781284878 0.635547581020 -0.684302825961 0.636220427089 -0.014789484164 -0.013343065101
0.189946000000 -0.035277554163 -0.008759500166 -0.392614813458 0.845628788726 -0.392845952788 0.846550547011 -0.033386518172 -0.009653222053
0.196944000000 -0.045447639112 0.007486494453 -0.044374161884 0.930039443331 -0.043482664686 0.931335042534 -0.044098408807 0.004978986396
0.203942000000 -0.040931751601 0.026104010524 0.310771670778 0.876963108968 0.311497134481 0.877866826557 -0.041336158644 0.022274514233
0.210940000000 -0.024707626088 0.036565245034 0.618973137078 0.694731246053 0.620373187152 0.694510332782 -0.028501412682 0.032183350690
0.217938000000 -0.005218145880 0.033115082837 0.835558120386 0.408277863918 0.836995947765 0.407483349989 -0.013158212023 0.030192632464
0.224936000000 0.006344907280 0.017269835546 0.927484795113 0.060762179182 0.927979403146 0.059512394057 -0.004720723119 0.018640321764
0.231934000000 0.004578961893 -0.002251645749 0.879837506580 -0.295202268840 0.880192104915 -0.295862685739 -0.007293205280 0.004651881659
0.238932000000 -0.009815983096 -0.015787264007 0.701486833207 -0.605874098966 0.701836626068 -0.606466021002 -0.019253143723 -0.003189124070
0.245930000000 -0.029786082417 -0.016198749391 0.419688189039 -0.825016501631 0.418979307703 -0.826183804442 -0.033867817345 -0.000063353095
0.252928000000 -0.045006107390 -0.003220975196 0.076031324526 -0.921798921915 0.074885286941 -0.921934647222 -0.042835348816 0.012664321457
0.259926000000 -0.048223318596 0.016501878895 -0.278256165619 -0.881535151811 -0.278966396673 -0.881038917526 -0.041336871037 0.028808236262
0.266924000000 -0.037772990189 0.033676769824 -0.590462906903 -0.710177864328 -0.590775081354 -0.709750108866 -0.029874406345 0.040550280019
0.273922000000 -0.018374563698 0.039753694025 -0.815074691894 -0.432958160954 -0.814676984222 -0.433724938514 -0.012982390992 0.042371667115
0.280920000000 -0.000169913910 0.031497323408 -0.917800751840 -0.091339204816 -0.917749082170 -0.093060621381 0.000749694620 0.032688650854
0.287918000000 0.007419356667 0.013416732001 -0.882861529490 0.262903121749 -0.883605747933 0.261625629420 0.004630648352 0.016803661709
0.294916000000 0.000642564917 -0.004777805838 -0.716959042238 0.576924026721 -0.717686054191 0.576034054040 -0.003625848964 0.002963462049
0.301914000000 -0.017028434652 -0.013057485830 -0.445404848707 0.804523527971 -0.445987060740 0.803530947483 -0.019372716891 -0.001406037348
0.308912000000 -0.036303324125 -0.006451394346 -0.107656865312 0.912535063157 -0.109365945863 0.911499706408 -0.034053081347 0.006938500703
0.315910000000 -0.045695891401 0.012460383450 0.245074268763 0.884416650681 0.242962608728 0.884286074172 -0.039244433121 0.024071042896
0.322908000000 -0.039070596238 0.033431974894 0.561365708448 0.725024641920 0.559182109364 0.726382213575 -0.030772347617 0.040614609979
0.329906000000 -0.019647474802 0.044229069313 0.792885129901 0.457450894223 0.791944265920 0.459926364582 -0.013094121549 0.047090518739
0.336904000000 0.001932755418 0.038769046508 0.906114610240 0.123330587466 0.906358551419 0.125571683579 0.004572058491 0.039738386739
0.343902000000 0.013692824084 0.019785560179 0.885026299099 -0.228250066915 0.885526081831 -0.225572139454 0.012036119149 0.022134087134
0.350900000000 0.008301392417 -0.002096648041 0.732615164450 -0.545990503913 0.733762641478 -0.543698294932 0.004610227671 0.004366783162
0.357898000000 -0.011632146251 -0.013613504754 0.471265003655 -0.782521664405 0.473258977574 -0.780294752038 -0.013804723797 -0.003022577986
0.364896000000 -0.034658274116 -0.007036738916 0.138492638310 -0.902219770757 0.142288046150 -0.900947998921 -0.032495313724 0.005480615979
0.371894000000 -0.046482307262 0.014536762085 -0.212877752005 -0.885211508943 -0.209611562724 -0.886041950884 -0.040126526639 0.025242801230
0.378892000000 -0.040181508633 0.038703844149 -0.531287806048 -0.737106471156 -0.528093472049 -0.740310972676 -0.031865699026 0.045624933124
0.385890000000 -0.018914939050 0.052154134695 -0.768700391713 -0.481912535008 -0.767777560693 -0.485324501476 -0.011612746339 0.054766289093
0.392888000000 0.005500082763 0.047349888634 -0.893042601462 -0.156868117672 -0.893457097602 -0.160050842613 0.009178228837 0.047847046564
0.399886000000 0.019126558491 0.027654626727 -0.887023140502 0.192223204650 -0.887841760255 0.189162165585 0.019092071031 0.028454825411
0.406884000000 0.014629810897 0.004721675914 -0.748394131335 0.514141688334 -0.750063755962 0.511309958412 0.012833526496 0.008340236621
0.413882000000 -0.004768356585 -0.007427930794 -0.496803217625 0.758991703226 -0.500387860505 0.756887944234 -0.005471120767 -0.001200615201
0.420880000000 -0.026517499778 -0.001288231103 -0.171391952151 0.889190319980 -0.176054500081 0.888793851121 -0.024558814357 0.005111460157
0.427878000000 -0.036911872076 0.018342762284 0.177226499939 0.886346034638 0.172399370106 0.888206233809 -0.033504199037 0.022417533073
0.434876000000 -0.030070702356 0.039666509299 0.497367979891 0.753027715059 0.493990027967 0.756763181984 -0.027599315381 0.040439792802
0.441874000000 -0.009998142635 0.050007107356 0.744356187091 0.509632843480 0.742703912059 0.514328178383 -0.011619404045 0.048696839223
0.448872000000 0.011676974633 0.043035750733 0.882066016872 0.191049328813 0.881974114608 0.196100473609 0.004579848944 0.043366917965
0.455870000000 0.022368118163 0.022877878762 0.889236318561 -0.157101284115 0.890772713748 -0.152661723749 0.011559054770 0.028822248576
0.462868000000 0.016114174008 0.000984732838 0.763375631089 -0.481673695567 0.766223663793 -0.478194579256 0.005973537711 0.014159314770
0.469866000000 -0.003962954764 -0.010376516678 0.522850966351 -0.734188081684 0.527457813622 -0.732490680169 -0.009062563360 0.008725630757
0.476864000000 -0.025961819618 -0.005187064134 0.206081688188 -0.876131751321 0.210319791221 -0.876706033265 -0.023527698973 0.015381376939
0.483862000000 -0.038802560347 0.013540881215 -0.140314079426 -0.888055345093 -0.136070267763 -0.889872682308 -0.029540631839 0.030693879427
0.490860000000 -0.035742667885 0.036089158621 -0.465030415644 -0.769151578529 -0.461878638921 -0.771458602967 -0.023643843427 0.046573354768
0.497858000000 -0.018983406561 0.050938863999 -0.720923106279 -0.536348241522 -0.719278030349 -0.539682303141 -0.009048979386 0.055257729718
0.504856000000 0.002927127562 0.051303673997 -0.870255540653 -0.223686691516 -0.869858257234 -0.227955514853 0.008125025920 0.052937963628
0.511854000000 0.019184520906 0.037996402328 -0.890135208284 0.122882904212 -0.891608272595 0.118239512229 0.019163113069 0.041019826088
0.518852000000 0.022945179365 0.018428808284 -0.777089666531 0.450079952189 -0.780005278493 0.446898457721 0.020230271424 0.025843448388
0.525850000000 0.013575384881 0.002593796769 -0.548135382959 0.710082207135 -0.552015620581 0.708196521647 0.012179605373 0.015247424878
0.532848000000 -0.002076034488 -0.002678804907 -0.238150412979 0.864821031086 -0.243042629704 0.863847452591 0.000749636864 0.012568636790
0.539846000000 -0.015850449949 0.004210384894 0.106322416559 0.890031606673 0.101151577086 0.890334526193 -0.008091354123 0.018148874914
0.546844000000 -0.020103374037 0.017761429552 0.435475564643 0.783348148509 0.429520535629 0.785800957117 -0.009799224385 0.027586046802
0.553842000000 -0.013508040096 0.030257184310 0.699117765191 0.559734142669 0.694234869886 0.565006235340 -0.004491514170 0.035841384299
0.560840000000 0.000721778081 0.034320840424 0.858232028290 0.252860255859 0.856182944740 0.259682723944 0.005289718409 0.036805822100
0.567838000000 0.013781909655 0.026940617591 0.888884818252 -0.091205684866 0.890027637312 -0.083585712246 0.013592623934 0.030692919700
0.574836000000 0.018486024545 0.012164749135 0.787233200775 -0.420905024165 0.790866504077 -0.413859987046 0.014873489787 0.020241373313
0.581834000000 0.011647572445 -0.001806606916 0.569409972761 -0.687102717195 0.575131225992 -0.681012229730 0.008736200498 0.011507332211
0.588832000000 -0.003412542201 -0.007664022849 0.266774132213 -0.851350886977 0.274914365965 -0.847201722398 -0.002114167455 0.009361268979
0.595830000000 -0.018948445174 -0.000820066143 -0.074846996027 -0.888705902034 -0.064883810248 -0.887918049792 -0.011870321176 0.016153609467
0.602828000000 -0.025442574326 0.015731246485 -0.405602761679 -0.793640906734 -0.396110115060 -0.796902531086 -0.014302239434 0.029066508327
0.609826000000 -0.018269588832 0.033038446124 -0.674629983147 -0.580600170830 -0.668017531575 -0.588270174702 -0.006906333741 0.040268157897
0.616824000000 -0.001062908049 0.041091361864 -0.842509074375 -0.281344329889 -0.840138233554 -0.290285897169 0.006741962798 0.043839359131
0.623822000000 0.017453451556 0.035625179255 -0.885121189707 0.057406872295 -0.886319570328 0.048856853013 0.019683580895 0.037502499972
0.630820000000 0.027383699074 0.019177276778 -0.797732533540 0.387327406687 -0.801590876691 0.379720276395 0.025252633179 0.023831478459
0.637818000000 0.023062134159 0.000841494564 -0.592944438154 0.659695964611 -0.598374561991 0.653279826690 0.020066890659 0.010219928562
0.644816000000 0.007055013734 -0.008566627540 -0.299817732938 0.834990536316 -0.307560240945 0.830405047483 0.007027405658 0.004320397265
0.651814000000 -0.010278612757 -0.002891516675 0.039305091548 0.886207606822 0.028991840852 0.885237027990 -0.006274882304 0.009701410340
0.658812000000 -0.017741882184 0.014188422123 0.372366090108 0.804161593919 0.362490542029 0.807661496548 -0.011433450605 0.022320390819
0.665810000000 -0.010498463705 0.031604170107 0.647596731769 0.602127152836 0.641062885082 0.610003378787 -0.006490962165 0.035010414405
0.672808000000 0.007154038366 0.039344065634 0.825435520466 0.312732115231 0.822929723935 0.321496201117 0.005537531548 0.040675646145
0.679806000000 0.025629161143 0.031913718341 0.882220643000 -0.021676132882 0.882745336196 -0.013076478992 0.017758063964 0.036368884867
0.686804000000 0.033818606572 0.013381851296 0.808920178583 -0.353457504518 0.812355052720 -0.344594512567 0.022766143290 0.025006517794
0.693802000000 0.026279873138 -0.005237001447 0.615705339700 -0.632581972617 0.622676427340 -0.624539298205 0.017993704214 0.014383102285
0.700800000000 0.007673071370 -0.013131422003 0.330119546501 -0.818068274503 0.340707316193 -0.814463216689 0.007079861002 0.011073396103
0.707798000000 -0.010742404852 -0.005395022720 -0.003855829904 -0.881607780155 0.007031997971 -0.882623581980 -0.002395003641 0.017160088038
0.714796000000 -0.018720541288 0.012776296112 -0.336465471198 -0.813849437055 -0.327462043159 -0.820134291370 -0.004943483869 0.028381942818
0.721794000000 -0.012263504563 0.031022313993 -0.618138799775 -0.625244485677 -0.612903606649 -0.633820582967 0.001201359153 0.038092763288
0.728792000000 0.004950354073 0.039410838071 -0.807742068480 -0.346380410995 -0.805557649913 -0.355131445043 0.012394734004 0.041149070723
0.735790000000 0.022720646729 0.033673147756 -0.878957774310 -0.015900342890 -0.880327812389 -0.025586659071 0.022117749680 0.036092782927
0.742788000000 0.031281438990 0.017732312049 -0.820084199826 0.317248757524 -0.824402262970 0.308342538818 0.025445991965 0.026215638491
0.749786000000 0.026442944488 0.001419270514 -0.639096511084 0.605115075848 -0.646382545332 0.597799982744 0.021884470552 0.017703609795
0.756784000000 0.012248810144 -0.007196639986 -0.362203997061 0.801368106602 -0.373407575456 0.798361944210 0.013608385052 0.014325036536
0.763782000000 -0.003144270355 -0.003984865098 -0.031005553627 0.877781923922 -0.042788085309 0.879253110663 0.006259568879 0.017536826350
0.770780000000 -0.012050469003 0.008415448600 0.302617682000 0.823169589217 0.292596267814 0.828578936122 0.003323792282 0.024589096577
0.777778000000 -0.009358501446 0.022831065091 0.591718204057 0.647628819488 0.583078419067 0.656470511307 0.006557594191 0.031071461630
0.784776000000 0.002429332855 0.030786734072 0.791353353632 0.376230863829 0.787349299491 0.387261770145 0.013253788647 0.033302829552
0.791774000000 0.015618309298 0.028575663070 0.874887839705 0.048868487549 0.875280457695 0.060776875709 0.019849389714 0.030612356789
0.798772000000 0.023615610100 0.017765815934 0.828068682763 -0.286208640990 0.833232852636 -0.273793190373 0.022889683308 0.024348215619
0.805770000000 0.022416247380 0.004708762765 0.657389164476 -0.578055041119 0.667475151779 -0.568833618841 0.020987051452 0.017488254186
0.812768000000 0.013108994810 -0.004227227762 0.389658933366 -0.783704038057 0.401633211642 -0.778393032777 0.015296599566 0.013938670079
0.819766000000 0.000736218621 -0.004599646940 0.064005926610 -0.872919619532 0.077339906884 -0.871976483095 0.009426113916 0.014775758024
0.826764000000 -0.008450572302 0.003127507250 -0.270605315585 -0.831962778877 -0.257345717030 -0.835056846023 0.005955255501 0.019940760700
0.833762000000 -0.010206342195 0.015187373026 -0.565584273369 -0.667151370876 -0.554373463872 -0.675295681025 0.007536687607 0.025961311869
0.840760000000 -0.003462861313 0.025034621696 -0.775452398325 -0.403317582313 -0.768006852307 -0.416056170309 0.013027801435 0.029872560815
0.847758000000 0.007964722796 0.028115120233 -0.869531958556 -0.079246686077 -0.868002719100 -0.094342564468 0.021007209805 0.028640738187
0.854756000000 0.018847890731 0.023204119583 -0.834051462908 0.254768303820 -0.838823640795 0.241245613726 0.027412798448 0.022576018208
0.861754000000 0.024001982947 0.013125215692 -0.675781456387 0.550466045437 -0.685148447193 0.540474458815 0.029364598510 0.012235591785
0.868752000000 0.021980562778 0.003317278665 -0.416786962541 0.764050700721 -0.429329704210 0.757946321260 0.024408925623 0.003226031909
0.875750000000 0.014500393613 -0.002136141324 -0.098643438258 0.864762762220 -0.112683340978 0.864089362297 0.015689204551 -0.001837033649
0.882748000000 0.006822362012 -0.000190862527 0.236086281708 0.837239833395 0.222328206672 0.840925291840 0.005901754666 -0.000130115941
0.889746000000 0.004727544525 0.006805355751 0.534780476812 0.685665220710 0.521666369971 0.693878453525 -0.001200716633 0.006605412198
0.896744000000 0.009991932369 0.013336491236 0.754377203967 0.431479513517 0.745630925545 0.445585760348 -0.001406722056 0.015556973670
0.903742000000 0.019516911127 0.013654327328 0.860477324218 0.113912689977 0.858079755898 0.130366995675 0.003780916834 0.021772533429
0.910740000000 0.027620460474 0.006052728531 0.838816965955 -0.219368247816 0.843042794785 -0.203219665258 0.010979935621 0.023073187587
0.917738000000 0.028405123652 -0.006586349018 0.693277607137 -0.519965996109 0.702200757364 -0.506254326125 0.015931841328 0.019292462248
0.924736000000 0.019972702349 -0.017159043278 0.445665156669 -0.742662478427 0.459107547421 -0.731570067776 0.015785812328 0.013798535273
0.931734000000 0.005513448847 -0.018900480455 0.132442938424 -0.855860282071 0.149480597728 -0.850797333350 0.011989987830 0.011617560852
0.938732000000 -0.006887560834 -0.009837434074 -0.201140250677 -0.842163119108 -0.182257341310 -0.845168557494 0.008056372698 0.014737228075
0.945730000000 -0.009885903602 0.006386516933 -0.504300178262 -0.702188416307 -0.488610839996 -0.714300940230 0.007479408399 0.020161693485
0.952728000000 -0.001521101175 0.020652126506 -0.731688571074 -0.457885555260 -0.723131858634 -0.474430294341 0.011304208671 0.026268623463
0.959726000000 0.014507276506 0.026261452532 -0.849306777241 -0.147658321278 -0.847973257795 -0.164299256067 0.020230630532 0.028132193085
0.966724000000 0.030316575717 0.020607139273 -0.841102057393 0.183756477656 -0.844615900286 0.167898098561 0.029167609182 0.024220674335
0.973722000000 0.038313202961 0.006617463263 -0.709566617124 0.486996684730 -0.717981690422 0.472440523587 0.034044990620 0.015490339107
0.980720000000 0.034580180904 -0.007701566423 -0.473592345900 0.718611411315 -0.488607817685 0.706878232231 0.032756529147 0.006174700573
0.987718000000 0.023934012021 -0.014113737335 -0.167957113876 0.844505014330 -0.186541597879 0.839679019797 0.026019788365 -0.000650445121
0.994716000000 0.013175338253 -0.010813835611 0.163243410531 0.845720075987 0.145041859613 0.849724192724 0.018572335917 -0.001452860805
1.001714000000 0.010133593527 -0.002144971670 0.471913896302 0.720304436330 0.457590793855 0.731180600103 0.012293468731 0.001316019120
