# GHZ S RI R 50.000000000000
0.001000000000 0.001707435723 0.000677880299 1.006467266539 -0.001186615674 0.998485309056 -0.008658010429 0.008518144723 0.001479495022
0.006999000000 0.054937282376 0.014857426341 1.043984475414 -0.040859933813 1.015705607627 -0.051528223966 0.053849119484 0.013635188461
0.012998000000 0.007917004555 0.017549649022 0.993023487115 -0.049411465225 0.992683392285 -0.049735900718 0.008127833124 0.017262520516
0.018997000000 0.013616192209 0.022482498771 0.998480082286 -0.075461270086 0.996987543445 -0.071579332586 0.013998437227 0.022382659013
0.024996000000 0.017931598120 0.030384277975 0.987547772590 -0.093488225816 0.986986388489 -0.093862920502 0.018177253756 0.030324574079
0.030995000000 0.024770676426 0.034998321330 0.988496345707 -0.114224086219 0.987892291842 -0.112324370872 0.025089941473 0.034832897088
0.036994000000 0.031982401944 0.038763598858 0.980628091972 -0.136802390947 0.980252304176 -0.136770093310 0.032478698600 0.038275324767
0.042993000000 0.039594442901 0.040645267246 0.981076618964 -0.163869674005 0.978211022795 -0.163344890599 0.040293966014 0.040183489824
0.048992000000 0.047399420513 0.042321679443 0.971289697759 -0.180214162498 0.970929692048 -0.180021515725 0.048179461576 0.041699079530
0.054991000000 0.055736021316 0.042540686730 0.970298722567 -0.200943599066 0.967588344830 -0.200060341132 0.056376800227 0.041866010886
0.060990000000 0.063291931876 0.041164392082 0.958624244650 -0.223317662682 0.958168339499 -0.222373729105 0.063852224139 0.040453259891
0.066989000000 0.071576506826 0.038494400173 0.956306302218 -0.245130256199 0.953845591549 -0.243598457390 0.072172649885 0.037906858909
0.072988000000 0.078872418394 0.034685343727 0.943793581057 -0.264062878063 0.943575468948 -0.262833467101 0.079192224958 0.033956991972
0.078987000000 0.086040402894 0.029757011739 0.940139928241 -0.284746279957 0.937986571076 -0.283419517619 0.086438274318 0.028901637308
0.084986000000 0.092233899696 0.023808272213 0.927440496380 -0.302362202520 0.927341478863 -0.301280481721 0.092402942176 0.022823820161
0.090985000000 0.097948647069 0.016684302617 0.923192531590 -0.322144503258 0.921442272558 -0.320112604803 0.098183603042 0.015757336701
0.096984000000 0.102195381718 0.008796121422 0.909939816084 -0.338946506062 0.910493928764 -0.337191528694 0.102242205234 0.007790745570
0.102983000000 0.105715639428 0.000111775632 0.905371846769 -0.358167753930 0.904129742303 -0.355288558163 0.105718016255 -0.001215468789
0.108982000000 0.107708831623 -0.008953900583 0.893019881035 -0.372560365756 0.893359090895 -0.371203406259 0.107398305570 -0.010146858729
0.114981000000 0.108669305216 -0.018549403504 0.889394792038 -0.390619127969 0.887766549201 -0.388537506277 0.108215417822 -0.019803683188
0.120980000000 0.107859716124 -0.028044893790 0.876784775843 -0.405564360577 0.877022355883 -0.404264812247 0.107077985402 -0.029230683063
0.126979000000 0.105952654631 -0.037689340513 0.872587855732 -0.424744109303 0.871398158400 -0.421691505950 0.105167052645 -0.038964907278
0.132978000000 0.102438396517 -0.046705406697 0.860695265346 -0.438737890667 0.861285245846 -0.437689461721 0.101537312527 -0.047715503016
0.138977000000 0.097950961918 -0.055541357605 0.856640091191 -0.457595298717 0.855265608063 -0.455438086081 0.097004966251 -0.056464653893
0.144976000000 0.092058333190 -0.063165515294 0.844338668302 -0.472023664909 0.844676684713 -0.471241547965 0.090838399157 -0.063954977408
0.150975000000 0.085510369685 -0.070472163254 0.840036192226 -0.491711130053 0.838406144728 -0.490142154978 0.084234169423 -0.071116953901
0.156974000000 0.077797787130 -0.076413637728 0.827151757825 -0.507130662920 0.827390664156 -0.506808340087 0.076417750694 -0.076734621787
0.162973000000 0.069595750313 -0.081611243446 0.821818802942 -0.527977957852 0.820327229824 -0.526191431207 0.068162595211 -0.081862090176
0.168972000000 0.060528256284 -0.085329410985 0.808136579413 -0.543031933964 0.808583415977 -0.542847956893 0.059225194955 -0.085243760005
0.174971000000 0.051119067055 -0.088408730034 0.800843726357 -0.564239773290 0.799139619255 -0.562579119824 0.049916592067 -0.088080231407
0.180970000000 0.041297998218 -0.089629040988 0.785850997706 -0.579342284203 0.785995525288 -0.579025560385 0.040266258444 -0.089008215267
0.186969000000 0.031416586304 -0.090108620605 0.777190836795 -0.600122501983 0.775618300281 -0.598597182678 0.030543732407 -0.089375622106
0.192968000000 0.021710044315 -0.089035392270 0.760574197155 -0.615250550695 0.760659659526 -0.614903252634 0.020939791423 -0.087865666382
0.198967000000 0.012141084406 -0.086955128478 0.750176781390 -0.635579014966 0.748518133235 -0.634234253401 0.011532506461 -0.085599994504
0.204966000000 0.003096746559 -0.083360735641 0.732024332571 -0.649799347938 0.732344940899 -0.648976051187 0.002748938720 -0.081695277011
0.210965000000 -0.005445140183 -0.078879741715 0.720311671415 -0.668974890311 0.718646437291 -0.667118365766 -0.005523393747 -0.077079273694
0.216964000000 -0.013166117074 -0.072873750801 0.700920960266 -0.681409457524 0.701075323972 -0.680917008417 -0.012829136355 -0.070958952867
0.222963000000 -0.020193887269 -0.066354443048 0.687670994755 -0.699130136722 0.686225575519 -0.697279279546 -0.019346474333 -0.064382267684
0.228962000000 -0.025991369819 -0.058673747995 0.668131084451 -0.710438020227 0.667966807166 -0.709696308065 -0.024591132608 -0.056654861977
0.234961000000 -0.030801631219 -0.050559797846 0.654818163796 -0.726939640621 0.652898861522 -0.724843558280 -0.028950913834 -0.048647862037
0.240960000000 -0.034249634114 -0.041792751643 0.634634847972 -0.736501121297 0.634601522992 -0.736084133886 -0.031760180530 -0.039924827814
0.246959000000 -0.036685004071 -0.032962806868 0.620126697986 -0.752888227787 0.619462678547 -0.749643065235 -0.033438221715 -0.031171611635
0.252958000000 -0.037573676708 -0.023650785179 0.601130406213 -0.760294803632 0.601102964980 -0.759235725201 -0.033564893024 -0.022336757620
0.258957000000 -0.037357740553 -0.014754349717 0.586618869139 -0.775594319349 0.585698757430 -0.772674249019 -0.032622384818 -0.013804975418
0.264956000000 -0.035628021696 -0.005992238040 0.567681328687 -0.783012885172 0.567891842505 -0.781712306194 -0.030263610573 -0.005707581614
0.270955000000 -0.032808591270 0.002030536674 0.554505820599 -0.796926153152 0.552477456851 -0.794678359924 -0.027007148943 0.001802368021
0.276954000000 -0.029138199753 0.009791831855 0.534152061175 -0.804464370799 0.534410092169 -0.803159479613 -0.022626881578 0.008620465005
0.282953000000 -0.024325843800 0.016390165715 0.520741471106 -0.818247508131 0.519372363108 -0.815402832493 -0.017290721469 0.014423737989
0.288952000000 -0.018680218360 0.022371923013 0.500779228661 -0.824820074948 0.500354717355 -0.824018614994 -0.011222451376 0.019453917246
0.294951000000 -0.012659231207 0.027171616105 0.485541974686 -0.839174007043 0.485314693842 -0.835367305477 -0.004854333550 0.023255874095
0.300950000000 -0.005996294945 0.031159744451 0.465910972838 -0.845121590110 0.466485894776 -0.843593577875 0.001990313454 0.025991687518
0.306949000000 0.000827088035 0.033789816020 0.450634159747 -0.858154502032 0.449826588661 -0.855293211104 0.008915741494 0.027618727919
0.312948000000 0.007989562690 0.035652228571 0.429899073672 -0.863675836185 0.430592542391 -0.862188524716 0.015987775893 0.027995507511
0.318947000000 0.015079600361 0.036412892884 0.413527250316 -0.876272039802 0.412723637655 -0.873439380617 0.022901669079 0.027387025912
0.324946000000 0.022122072815 0.036397581714 0.392520082146 -0.881025139568 0.392914832851 -0.879619300072 0.029547567080 0.025584116271
0.330945000000 0.028657196735 0.034919911703 0.375678217919 -0.892531309667 0.375040689769 -0.889530305312 0.035875441424 0.022725505233
0.336944000000 0.035063969571 0.032788075273 0.353406780607 -0.895978837561 0.354818916483 -0.894552569150 0.041663553535 0.019141597997
0.342943000000 0.040775739933 0.029507228814 0.335450000400 -0.906693080792 0.335455988397 -0.903764946566 0.046592546915 0.014395157452
0.348942000000 0.046053425589 0.025655698888 0.314353358369 -0.908347888942 0.315362662236 -0.907564362811 0.050604229173 0.009090343345
0.354941000000 0.050359428256 0.021073873558 0.295503480864 -0.918129736095 0.295912601661 -0.915062488503 0.053696739407 0.002812723940
0.360940000000 0.054046297976 0.015934077687 0.275015561338 -0.918240488924 0.276057467654 -0.917348774890 0.055785053326 -0.003525727516
0.366939000000 0.056431153679 0.010287202653 0.257429730981 -0.926966269755 0.257726861580 -0.924322169598 0.056579849122 -0.010384826973
0.372938000000 0.058208249154 0.004633958720 0.236488178122 -0.926014174326 0.237613352574 -0.925931131890 0.056352098780 -0.017140779450
0.378937000000 0.058562085121 -0.001459263508 0.219163822735 -0.934363025244 0.218928442242 -0.932008911544 0.055047494703 -0.023960405114
0.384936000000 0.058211924146 -0.007215251418 0.198797151070 -0.933339245960 0.199378530186 -0.933071638280 0.052540311056 -0.030428394212
0.390935000000 0.056715266037 -0.012786056983 0.180940879615 -0.940551420290 0.180743374773 -0.938362399104 0.048706006282 -0.036714909475
0.396934000000 0.054548860734 -0.017900209189 0.161366948084 -0.938941831896 0.161185352708 -0.938550078509 0.044162890448 -0.042203524284
0.402933000000 0.051285241061 -0.022548460457 0.143706837079 -0.946337512564 0.142924918183 -0.943455838226 0.038428373336 -0.046954849125
0.408932000000 0.047652179695 -0.026446343766 0.124122091930 -0.944589767107 0.124163872361 -0.943266639026 0.032195063993 -0.050591996973
0.414931000000 0.043049778424 -0.029850810723 0.105471923498 -0.951747735045 0.105216109426 -0.948031283337 0.025018214071 -0.053456763747
0.420930000000 0.038370957255 -0.032268726490 0.086165205957 -0.949586734407 0.086597331524 -0.947495945790 0.017779538864 -0.054999987582
0.426929000000 0.033032030876 -0.033744193957 0.067295303699 -0.956251116397 0.067495696042 -0.951760073949 0.009858806857 -0.055759645501
0.432928000000 0.027931014918 -0.034189666916 0.047634291663 -0.953314661674 0.048182148153 -0.950717841614 0.002169353429 -0.055235101777
0.438927000000 0.022285313455 -0.034013658448 0.028706392054 -0.959670373072 0.028818409020 -0.954272413836 -0.005793919533 -0.053557524402
0.444926000000 0.017099559563 -0.032971727179 0.007030439308 -0.956034153749 0.009217433296 -0.952553193808 -0.013256249473 -0.050679617661
0.450925000000 0.011977347032 -0.030960919407 -0.013900606756 -0.961756215986 -0.011382225920 -0.955103392028 -0.020693754837 -0.046724045490
0.456924000000 0.007512667622 -0.028023928445 -0.034080344540 -0.956350072394 -0.031088359012 -0.952876250070 -0.027080714736 -0.041716121737
0.462923000000 0.003164855044 -0.024315515716 -0.055636207644 -0.960369791703 -0.051471678140 -0.954266805089 -0.033378191537 -0.035525630561
0.468922000000 -0.000192464534 -0.019696858316 -0.076250006065 -0.954314890628 -0.071602910998 -0.950658270674 -0.038475071620 -0.028589259015
0.474921000000 -0.003284777483 -0.014726756966 -0.097405368422 -0.956418255188 -0.091742196725 -0.950788261716 -0.042932964903 -0.020681875561
0.480920000000 -0.005045056787 -0.009479541190 -0.117461178731 -0.949057800329 -0.112037734847 -0.946265782989 -0.045929799290 -0.012456785314
0.486919000000 -0.006182862087 -0.003695959324 -0.134608136213 -0.950285223683 -0.131870336023 -0.945261131787 -0.048103270047 -0.003583104334
0.492918000000 -0.006387838847 0.002003749070 -0.157793524213 -0.941166295701 -0.151254923106 -0.939624631319 -0.048777379881 0.005583837682
0.498917000000 -0.005909868709 0.007935677460 -0.177859929110 -0.941043432281 -0.171548153197 -0.938116099498 -0.048538034792 0.014960759561
0.504916000000 -0.004252873077 0.013752521186 -0.197211532935 -0.930853081926 -0.189932299440 -0.931291136576 -0.046789443363 0.024050438007
0.510915000000 -0.001986697851 0.019491713587 -0.216541818272 -0.929392763723 -0.208393290036 -0.929193440734 -0.043740605817 0.033074515102
0.516914000000 0.001447411228 0.024580950481 -0.234145566845 -0.918985220125 -0.227213866842 -0.921620267007 -0.039533975925 0.041373887755
0.522913000000 0.005342792583 0.029356739851 -0.254237482693 -0.917263639077 -0.247280452278 -0.918613576490 -0.034261283758 0.049568202855
0.528912000000 0.010223976562 0.033277717631 -0.269131000241 -0.907105656864 -0.263285748875 -0.911544155402 -0.027874807903 0.056379451294
0.534911000000 0.015346168270 0.036759589400 -0.288910737704 -0.905260855346 -0.282405726505 -0.908391663164 -0.020710490269 0.062606438844
0.540910000000 0.021308843786 0.039038223184 -0.304891647725 -0.895264875633 -0.300254660732 -0.900868834284 -0.012866992749 0.067449912901
0.546909000000 0.027312790543 0.040835066042 -0.324053784950 -0.892874555697 -0.319019136615 -0.897402078501 -0.004409149109 0.071587606349
0.552908000000 0.033758224988 0.041406013989 -0.339245372167 -0.883265808429 -0.336391376757 -0.889421545207 0.004422244670 0.074211374560
0.558907000000 0.039989900038 0.041508465866 -0.357690332935 -0.881300157596 -0.355653738589 -0.885161049500 0.013362734908 0.075868758159
0.564906000000 0.046377367566 0.040317507488 -0.374575310192 -0.870023400508 -0.373525001428 -0.876149607996 0.022372864542 0.075920936099
0.570905000000 0.052344390596 0.038425852845 -0.394231589264 -0.867693757356 -0.392938249230 -0.871372883683 0.031105625675 0.075393264344
0.576904000000 0.058149073766 0.035346412349 -0.410743376482 -0.856163864527 -0.410944187773 -0.861230367974 0.039724271907 0.073340985831
0.582903000000 0.063263451739 0.031996691491 -0.431362368170 -0.853126255546 -0.430864192937 -0.855328805108 0.047956673835 0.070645723035
0.588902000000 0.067890843230 0.027617187319 -0.447637959341 -0.840678111397 -0.448214667888 -0.844596594029 0.055595325442 0.066451350397
0.594901000000 0.071824338858 0.022954284992 -0.468296201489 -0.836307439958 -0.468067612025 -0.837025571501 0.062562870148 0.061522103005
0.600900000000 0.075194898513 0.017251109263 -0.485121152815 -0.822819269051 -0.485403491431 -0.824931289170 0.068711583190 0.055433383304
0.606899000000 0.077553908820 0.011673229174 -0.506094295295 -0.816484679029 -0.504719310882 -0.816044563310 0.073977663840 0.048961240683
0.612898000000 0.079004856978 0.005201792290 -0.521091177532 -0.801990276542 -0.521731865006 -0.802072403428 0.077993487776 0.041694617683
0.618897000000 0.079468647199 -0.001055584945 -0.541603927877 -0.794504531028 -0.540532334317 -0.792273486308 0.081114293259 0.034383598834
0.624896000000 0.078878477440 -0.007719789240 -0.556395734241 -0.777947546558 -0.556113336163 -0.777718913583 0.082762906814 0.026349065124
0.630895000000 0.077354922682 -0.013765705459 -0.576476032753 -0.768742671953 -0.573725042840 -0.766681134931 0.083226649292 0.018541788995
0.636894000000 0.074657089685 -0.019903901929 -0.589670823223 -0.751657520774 -0.587867182132 -0.751033884615 0.082220938362 0.010627699153
0.642893000000 0.071137318895 -0.025053461621 -0.608725965376 -0.741422571574 -0.604925145019 -0.739000398941 0.080329453766 0.003286340835
0.648892000000 0.066573273487 -0.030046073706 -0.620761093828 -0.723869057599 -0.618274309307 -0.723178044786 0.077025998000 -0.003737913030
0.654891000000 0.061518934120 -0.033771402314 -0.639150047641 -0.712666032166 -0.634676241652 -0.711021789787 0.073102261151 -0.009706156253
0.660890000000 0.055627517778 -0.036991367945 -0.650674322483 -0.694255377764 -0.647457826013 -0.694876762114 0.067866680667 -0.015225240082
0.666889000000 0.049508179874 -0.038745427027 -0.667294583743 -0.683028959303 -0.662809446212 -0.682834835827 0.061947958797 -0.019464341822
0.672888000000 0.042745443610 -0.039874181887 -0.676906948561 -0.664989453422 -0.674262885013 -0.666391819314 0.055024208472 -0.022661569948
0.678887000000 0.036090412983 -0.039266324502 -0.692401267720 -0.654671062381 -0.688571567200 -0.654109996258 0.048217186349 -0.024075172932
0.684886000000 0.029188697782 -0.038112545176 -0.702438288207 -0.635826428435 -0.700022890508 -0.636936722256 0.040771811736 -0.024821331606
0.690885000000 0.022787877833 -0.036116044662 -0.724567324457 -0.617949262291 -0.716249562597 -0.622431375520 0.033536369220 -0.024573965632
0.696884000000 0.016466775005 -0.031295369879 -0.726069985857 -0.606157067227 -0.724598381998 -0.608704878577 0.026408568847 -0.021741438499
0.702883000000 0.011109733499 -0.026106238377 -0.742376380227 -0.593287593736 -0.738147140415 -0.595465433796 0.019965132643 -0.018242926510
0.708882000000 0.006326099113 -0.020354719984 -0.751257564002 -0.574203176092 -0.748602568996 -0.576761974322 0.013755105924 -0.013906256483
0.714881000000 0.002619803996 -0.013609574240 -0.766690425228 -0.559925217815 -0.763104931481 -0.562140002521 0.008674685902 -0.008079674918
0.720880000000 -0.000370104614 -0.006150712312 -0.774851656355 -0.542283822215 -0.771438522597 -0.544138166109 0.004320417035 -0.001438388687
0.726879000000 -0.001753955983 0.002148190154 -0.788114626995 -0.529542918306 -0.785521658727 -0.529047673173 0.001254192347 0.006287160950
0.732878000000 -0.002460019272 0.010661561185 -0.796448485045 -0.508594570440 -0.794542573237 -0.510958335628 -0.000769990598 0.014390769483
0.738877000000 -0.001468744883 0.019609603712 -0.811161336469 -0.493006272239 -0.806426867136 -0.494365194046 -0.001299724433 0.023257355727
0.744876000000 0.000569880381 0.028516773832 -0.816361373124 -0.472646510827 -0.813836936787 -0.475353520025 -0.000759694590 0.032196561824
0.750875000000 0.004460709331 0.037421880691 -0.830337651342 -0.456780916863 -0.825822282929 -0.459123638023 0.001835535136 0.041372524754
0.756874000000 0.009361758576 0.045835612116 -0.834473656786 -0.435774016645 -0.832129092906 -0.439147362662 0.005358214096 0.050324020880
0.762873000000 0.015782741493 0.053979166834 -0.846480786776 -0.418743246369 -0.842224305987 -0.421863460046 0.010683673606 0.059167956015
0.768872000000 0.023363001150 0.061441521539 -0.849190643884 -0.398359816350 -0.847133490309 -0.402960031858 0.017054659721 0.067215029328
0.774871000000 0.032319857156 0.067831455592 -0.859870116470 -0.380825612673 -0.856098508596 -0.385043286147 0.025296104157 0.074676539397
0.780870000000 0.042260152202 0.073057171337 -0.861127013061 -0.361167341725 -0.859625628037 -0.366462846100 0.034408523847 0.080958022615
0.786869000000 0.053165117008 0.077263005702 -0.870520951096 -0.344199952510 -0.867564778233 -0.349498152268 0.045158327604 0.086337872544
0.792868000000 0.064736211253 0.079989232560 -0.870952324302 -0.325331074368 -0.870482387446 -0.331093678387 0.056320525072 0.090084519321
0.798867000000 0.076874791006 0.081352561163 -0.879485785789 -0.309538581344 -0.877847393698 -0.314675063908 0.068419195680 0.092577830223
0.804866000000 0.089281540055 0.080901326190 -0.879695105187 -0.290974426663 -0.880504921052 -0.296803699640 0.080850163957 0.093278453704
0.810865000000 0.101825706916 0.079212555482 -0.887780791922 -0.275358754166 -0.887440519630 -0.280510368444 0.094148904345 0.092571815148
0.816864000000 0.114185059949 0.075662317686 -0.887625965523 -0.257920565933 -0.889827126808 -0.263493261727 0.106896675321 0.089994408487
0.822863000000 0.126174997751 0.070927952902 -0.894951588530 -0.247570357061 -0.896822972262 -0.248131596391 0.119528058813 0.086560032887
0.828862000000 0.138136057385 0.064514706009 -0.897096233990 -0.226422670904 -0.899464667300 -0.230016866838 0.132056335044 0.080053680904
0.834861000000 0.149332823853 0.056729019220 -0.906228364400 -0.211544454403 -0.907272492137 -0.213717261103 0.144376313650 0.073025086603
0.840860000000 0.159262784627 0.047570408193 -0.906713427155 -0.194478773013 -0.910177746836 -0.196196205412 0.155404500724 0.063976253341
0.846859000000 0.168712699974 0.037240347294 -0.916142053860 -0.178428218490 -0.917242336901 -0.178977518223 0.166041895130 0.053864942373
0.852858000000 0.176838595820 0.025742015422 -0.917469297227 -0.160013930337 -0.919682431097 -0.160773782081 0.174943260298 0.042098234754
