# GHZ S RI R 50.000000000000
0.001000000000 0.031806434899 -0.002318427596 0.960800595819 -0.186140648791 0.967563726359 -0.181952284206 0.021896761978 0.000461819682
0.007998000000 -0.009327916221 -0.023655092124 0.131064594829 -0.933316893657 0.128396301216 -0.933807713667 -0.009758344312 -0.026259850298
0.014996000000 -0.010805354590 -0.009850425140 -0.816346618742 -0.432010927338 -0.818029974794 -0.428362956170 -0.015813216454 -0.012275849725
0.021994000000 -0.017193819327 -0.026155419853 -0.674788939545 0.612609108340 -0.671759840869 0.615003467038 -0.021022501699 -0.022248667295
0.028992000000 -0.032060219546 -0.003964478082 0.340666003326 0.835995363765 0.342334727039 0.834824101678 -0.032065775145 -0.004965724302
0.035990000000 -0.009769576116 -0.023674477582 0.894432360450 -0.036641974662 0.894597439701 -0.036980131677 -0.019710714310 -0.022779654372
0.042988000000 -0.079810240278 -0.028888038759 0.270572829556 -0.844663675138 0.270543820845 -0.844130089807 -0.082916714924 -0.015479405124
0.049986000000 -0.061542553161 0.075788618829 -0.694405637346 -0.540940433687 -0.694250033371 -0.541717818089 -0.053821272393 0.081050534072
0.056984000000 0.041514968002 0.045591080718 -0.744793872703 0.462291791088 -0.744225526284 0.462696006010 0.043066972129 0.045111204516
0.063982000000 0.020254923879 -0.023800042793 0.178784225222 0.855905396690 0.179054057987 0.855224728268 0.021533857451 -0.021873952928
0.070980000000 -0.005231093423 -0.029598740379 0.860791060831 0.123419163551 0.860887007597 0.122279776945 -0.005232748131 -0.029486885824
0.077978000000 -0.033837995848 -0.026642124030 0.408690490263 -0.762240086411 0.407370941222 -0.762433730411 -0.034332083564 -0.023717357702
0.084976000000 -0.015629315254 -0.007725110837 -0.574288880463 -0.640770189685 -0.574502034391 -0.640514859286 -0.015124669265 -0.007353353692
0.091974000000 -0.045800603087 -0.071665513699 -0.790029114183 0.320214699147 -0.789222102122 0.320315463162 -0.049824795856 -0.068315106567
0.098972000000 -0.157208195834 0.019521645386 0.027049739533 0.838909029380 0.026170286680 0.838911262715 -0.154823277020 0.027613930385
0.105970000000 -0.036440411009 0.155490401636 0.788548584990 0.273719948160 0.788989545998 0.273599742636 -0.029750544395 0.157433615638
0.112968000000 0.091378566251 0.053438641346 0.536190401631 -0.646596421928 0.535249607734 -0.647090501215 0.094653568771 0.050862841464
0.119966000000 0.047719545487 -0.039337215653 -0.427123512703 -0.725124675404 -0.427246909502 -0.724611471546 0.046150159317 -0.043139933779
0.126964000000 -0.010179390688 -0.055122620352 -0.823914954720 0.155158240733 -0.823487050063 0.154784330248 -0.014887753369 -0.053606981334
0.133962000000 -0.039591428538 -0.014787483356 -0.135065869325 0.822970954114 -0.135435632633 0.822717530483 -0.039454126141 -0.012748781962
0.140960000000 0.003023727767 -0.038609715009 0.724949636076 0.403828137523 0.724708141663 0.403788963113 -0.002971978593 -0.039998986835
0.147958000000 -0.114012406122 -0.093678302905 0.613372270647 -0.535786752662 0.613734707435 -0.534742878317 -0.121796360456 -0.081783284273
0.154956000000 -0.186455105924 0.095897599558 -0.273313370233 -0.750050458464 -0.272600369880 -0.750983957683 -0.177679576655 0.110522285651
0.161954000000 0.014523911956 0.186893973178 -0.803432858513 -0.020177405244 -0.803863705628 -0.020116153152 0.029415698364 0.186131521228
0.168952000000 0.111783561915 0.037577586642 -0.299841583751 0.756988551540 -0.299397051828 0.757175039880 0.116893945089 0.026989965905
0.175950000000 0.044483046014 -0.049204584186 0.612297013527 0.538442520049 0.612191279101 0.538051068313 0.038805006616 -0.055362362614
0.182948000000 -0.019473921381 -0.039290320035 0.711511793515 -0.391340365916 0.711509165259 -0.390852382340 -0.022291565269 -0.037826580591
0.189946000000 -0.001744283984 -0.008616139856 -0.125447382662 -0.799090843309 -0.125053336476 -0.799438389562 -0.002638210412 -0.012409058056
0.196944000000 -0.009097465162 -0.095308855860 -0.785765046395 -0.146839484318 -0.785214433193 -0.147140804843 -0.017911706905 -0.094974728590
0.203942000000 -0.183893538699 -0.061695902493 -0.401836381943 0.667113587539 -0.403267212969 0.666177884307 -0.184445350134 -0.054855068382
0.210940000000 -0.156082307167 0.167999479848 0.466601764805 0.615476945497 0.466732670746 0.616280382195 -0.152901549811 0.168068802994
0.217938000000 0.070130587873 0.173801007024 0.752027001956 -0.218463487363 0.753105238219 -0.218619642798 0.074505167084 0.170295577349
0.224936000000 0.111051826294 0.010588271986 0.050976267707 -0.790020657580 0.050831281967 -0.790475450134 0.109530389084 -0.007253434284
0.231934000000 0.032367375036 -0.047303190089 -0.726295237653 -0.315282505764 -0.725701965786 -0.315576125810 0.008070202606 -0.055493973694
0.238932000000 -0.010147307646 -0.020714301882 -0.542570309190 0.574412846733 -0.543247592047 0.573656270321 -0.019707824593 -0.013618925722
0.245930000000 0.025061118789 -0.022516857638 0.356241327124 0.700326733592 0.356183587005 0.700231578053 0.008072039116 -0.037591765829
0.252928000000 -0.033595380960 -0.119142746561 0.766576070485 -0.095418819566 0.765672223409 -0.095053883653 -0.078213157218 -0.103344563282
0.259926000000 -0.205926084401 -0.019222863071 0.179933269054 -0.736159530059 0.180913233214 -0.735150472472 -0.210957168474 0.019509491718
0.266924000000 -0.102075883382 0.204752255611 -0.617912562498 -0.433500039125 -0.617301492101 -0.434665520979 -0.100165208525 0.210987323209
0.273922000000 0.121464328067 0.131840673572 -0.630536917039 0.428007247157 -0.631196149304 0.426673305944 0.105671160923 0.149802325638
0.280920000000 0.091654775839 -0.035406407470 0.186191133551 0.746995407200 0.183580601200 0.746234031863 0.096295971978 -0.015975506857
0.287918000000 0.010297465720 -0.033030570709 0.767914656822 0.079174354855 0.766915737566 0.081710236971 0.003112928706 -0.026982263123
0.294916000000 0.017357305024 -0.017249230293 0.333450722489 -0.694291860482 0.335093238554 -0.691878936851 0.011656125699 0.003373445998
0.301914000000 0.025582887949 -0.064259122146 -0.535258813691 -0.545154707149 -0.531970542884 -0.546232920517 0.020875657552 -0.058666272591
0.308912000000 -0.079287662757 -0.120530919451 -0.686901966569 0.310473663508 -0.687024159734 0.306637281276 -0.106106664439 -0.092308489407
0.315910000000 -0.203536480095 0.029246100415 0.048569193197 0.741945321875 0.043482561620 0.741127386442 -0.189920635876 0.078965938432
0.322908000000 -0.049371298055 0.198296550448 0.705356021687 0.220016163072 0.704391615814 0.224233566272 -0.021193923527 0.208138494107
0.329906000000 0.117881579003 0.077400688527 0.462604390320 -0.584635201899 0.464691606098 -0.582253720255 0.120792201059 0.084903957183
0.336904000000 0.045600208306 -0.036951167933 -0.394140251711 -0.642380457369 -0.389895119575 -0.643983642222 0.060728463192 -0.021073112237
0.343902000000 0.002415676400 -0.007152865545 -0.738572056540 0.153421949755 -0.738756205156 0.149512343392 0.017442401153 -0.009711192472
0.350900000000 0.023392560495 -0.009443862800 -0.106805155837 0.744260904352 -0.111089001732 0.742391883865 0.024599502936 -0.017044918504
0.357898000000 0.018145063217 -0.069080696431 0.658956204576 0.352488036424 0.655639727589 0.356112068100 0.001641119514 -0.071602189748
0.364896000000 -0.109866598138 -0.092422355218 0.550227066930 -0.493528774564 0.552864807107 -0.488550425944 -0.124921270288 -0.067329785058
0.371894000000 -0.168716219170 0.089512530750 -0.263192474051 -0.676321393084 -0.258323362212 -0.678688460933 -0.156757530441 0.109955014531
0.378892000000 0.018911109215 0.170470546876 -0.724753750986 -0.002695769808 -0.725202691823 -0.007391699074 0.021597011363 0.173608654694
0.385890000000 0.089103055118 0.026259192841 -0.262885078252 0.686427706084 -0.266745667199 0.684614354285 0.087769141595 0.041989012122
0.392888000000 0.019034591026 -0.006077215027 0.559294385553 0.483276688316 0.556109915643 0.486955229181 0.027226257882 0.001613229980
0.399886000000 0.021307995028 0.003779597922 0.644620632960 -0.360149022685 0.646302185891 -0.355475288725 0.019877995617 0.009960420263
0.406884000000 0.021443998624 -0.014796999666 -0.116609964396 -0.727067951184 -0.111457868226 -0.727617958346 0.024510908422 -0.007464310759
0.413882000000 0.003774109304 -0.057568317485 -0.720450856897 -0.138714278150 -0.718849685143 -0.143860337585 -0.004293163001 -0.053666385463
0.420880000000 -0.102302276524 -0.046971990675 -0.372411377257 0.622106713571 -0.378161469783 0.618253221752 -0.106040902201 -0.024439386476
0.427878000000 -0.097654389272 0.097328385470 0.442856902820 0.563927571172 0.438334130542 0.568672181319 -0.084303679973 0.108886943857
0.434876000000 0.036610396804 0.094668377223 0.689124127223 -0.213093408278 0.691401515645 -0.207722420295 0.038254324623 0.096495124328
0.441874000000 0.032029390844 0.014276131435 0.037615540488 -0.724439287508 0.043584994957 -0.724549250622 0.033288715941 0.019697696209
0.448872000000 0.016040808491 0.018339093835 -0.666627697914 -0.284105690213 -0.664646915726 -0.289965585014 0.008252057146 0.020081217279
0.455870000000 0.016933347561 -0.000110849724 -0.495899276558 0.526707748132 -0.500437110421 0.522177493530 0.009886687171 0.015806423729
0.462868000000 0.012721325359 -0.000644357013 0.322212412789 0.646202888829 0.317208244771 0.648840004084 0.010478403385 0.002809628668
0.469866000000 0.005565828770 -0.045350011884 0.714195059132 -0.081047068746 0.714739410682 -0.074516640033 -0.022950307432 -0.027573485328
0.476864000000 -0.085173569979 -0.026624653169 0.171400663811 -0.690751370297 0.177594044073 -0.689838841830 -0.083997486274 0.023815453013
0.483862000000 -0.055855301466 0.075833686692 -0.584037296683 -0.404539339290 -0.581084605586 -0.409639591103 -0.030212169133 0.093962895656
0.490860000000 0.018970373370 0.041475164797 -0.584646440316 0.408456261558 -0.587942868395 0.403836247702 0.020561979139 0.055493243841
0.497858000000 -0.011215270223 0.015145381888 0.181732195917 0.688830335892 0.176518558892 0.690067206197 0.004428806750 0.040016279130
0.504856000000 0.001618817062 0.029439322320 0.707969877298 0.067633826264 0.707422477813 0.074060852050 0.015448958974 0.037341229086
0.511854000000 -0.005511485373 0.004441030041 0.307908176502 -0.639620809726 0.313585347019 -0.636375613269 0.001941287193 0.026612996991
0.518852000000 -0.017881749676 0.026954014499 -0.491479816973 -0.509872576650 -0.486112947797 -0.514054436936 0.013729196691 0.043291834199
0.525850000000 0.003925511411 0.017249021264 -0.647031343177 0.283707903421 -0.649658341252 0.277222198877 0.027267910030 0.007398800001
0.532848000000 -0.022995839874 0.010109445120 0.041807601277 0.703500450456 0.034432650900 0.703428066943 -0.018335589251 0.002858410872
0.539846000000 -0.013922602570 0.041396565517 0.672492729840 0.205058735950 0.670100486583 0.211991423069 -0.010713343924 0.040480340905
0.546844000000 0.005100394256 0.028561258425 0.424325169972 -0.558328459972 0.430331901890 -0.553590480415 0.008233345772 0.023119065533
0.553842000000 0.003449107570 0.031605159010 -0.375363046643 -0.590695508463 -0.368842864226 -0.593639504653 -0.011088440400 0.022732524222
0.560840000000 0.022711772656 0.018354217736 -0.682765515037 0.147372616580 -0.683259929413 0.139367338076 -0.002573470662 0.036689392990
0.567838000000 -0.002383267146 0.004078925014 -0.097914978513 0.689827165960 -0.106711940860 0.686948749240 0.000299767842 0.033123415467
0.574836000000 0.008340464443 0.036120757786 0.611482172852 0.329554738291 0.605652436744 0.338230316283 0.010995447775 0.043970186307
0.581834000000 0.041458942183 0.000223794000 0.520055538371 -0.457604804720 0.525605987525 -0.449283370873 0.032788539149 0.021390107836
0.588832000000 0.000356362253 -0.026880742954 -0.247786741344 -0.645996824638 -0.236984398954 -0.647886024820 0.010350231847 -0.004967452141
0.595830000000 -0.014104991052 -0.004722594319 -0.690533906311 0.008854249600 -0.689990339407 -0.002506727260 -0.013077432617 0.005439714719
0.602828000000 -0.023133227464 -0.000024443096 -0.230679227575 0.649738802635 -0.240695437620 0.644452074058 -0.021151021191 0.024076348088
0.609826000000 -0.018435673642 0.028733625744 0.527056310527 0.440291522132 0.519511811217 0.448403541999 -0.005538948977 0.041995506083
0.616824000000 -0.000126385738 0.012929042605 0.593883253635 -0.340292131178 0.598442677403 -0.331529174955 0.001329093324 0.024498712165
0.623822000000 -0.034566755138 0.034563785844 -0.114228260317 -0.672704936742 -0.103469417088 -0.673504882536 -0.025055969769 0.049790801921
0.630820000000 0.031631500368 0.088098244914 -0.664020661438 -0.125388400014 -0.661972443405 -0.135905246815 0.033733041614 0.091928979689
0.637818000000 0.098548522177 0.001105243186 -0.353020265828 0.574188892307 -0.360818257937 0.567527096590 0.094371552449 0.018793673160
0.644816000000 0.028628637803 -0.066120441125 0.415348746864 0.534543655967 0.406456845950 0.540712454633 0.038530961268 -0.051580154415
0.651814000000 -0.030874903313 -0.040924226869 0.647314733924 -0.206682692757 0.648962369657 -0.196680917239 -0.030058580477 -0.033880612444
0.658812000000 -0.047705506204 0.010819476827 0.027056258205 -0.676844302089 0.038262113037 -0.674857536778 -0.046671110966 0.021384160472
0.665810000000 -0.002971637816 0.035214314681 -0.622531899946 -0.258716389966 -0.617818819182 -0.268398318191 -0.013066928445 0.043062386288
0.672808000000 -0.015469779990 -0.003921652904 -0.455733484337 0.494375664536 -0.463716403331 0.485597226473 -0.024061991051 0.030241381741
0.679806000000 -0.051445883827 0.072081184939 0.303692146231 0.590522557759 0.293967203849 0.596930853847 -0.028971274730 0.096682543180
0.686804000000 0.074415128571 0.111742267393 0.652694130486 -0.071216990181 0.654763481703 -0.061565372847 0.084035633778 0.112286993906
0.693802000000 0.125320562604 -0.022994623558 0.170515051973 -0.638257275085 0.180667645194 -0.635055602760 0.125336786946 -0.011267759837
0.700800000000 0.027693393279 -0.088522069878 -0.545596511480 -0.384334646220 -0.538979749428 -0.392755312463 0.030751737203 -0.080993823922
0.707798000000 -0.048679810899 -0.047926645187 -0.547424813664 0.382167828736 -0.553750956262 0.371532640657 -0.052634509021 -0.034281825318
0.714796000000 -0.048768801311 0.025059899708 0.169144362369 0.642456166516 0.156906845764 0.646148031285 -0.044971704366 0.037186660214
0.721794000000 0.001559671448 0.021559882878 0.660375090708 0.063262524404 0.659708844984 0.075084626545 -0.009452290986 0.033922163542
0.728792000000 -0.051086324699 0.006387327717 0.281973635202 -0.594709986270 0.293790661417 -0.590522897174 -0.048169396168 0.043582326295
0.735790000000 -0.038606864823 0.124396463933 -0.449614795099 -0.464826455691 -0.443947901556 -0.474186252716 -0.010098519862 0.139148765534
0.742788000000 0.126110975342 0.112819044727 -0.594163141455 0.248269442727 -0.598674483103 0.240611844280 0.135343653743 0.107458759557
0.749786000000 0.146361831281 -0.055094128472 0.021577787917 0.651290749465 0.012095597977 0.650704801230 0.143261269305 -0.056114523278
0.756784000000 0.017829563703 -0.117012726946 0.622541450364 0.203854433877 0.617651959096 0.215273237013 0.001705376465 -0.109836994521
0.763782000000 -0.066605584634 -0.045688202658 0.405044636965 -0.513470353670 0.416099946878 -0.505093951800 -0.073763927116 -0.018778627310
0.770780000000 -0.033542256292 0.024031844701 -0.341734413684 -0.557847067556 -0.331049771711 -0.565506790256 -0.031364005429 0.036937171886
0.777778000000 -0.012680729118 -0.011669897665 -0.640071240200 0.132058657254 -0.642915392607 0.118139969847 -0.030887022530 0.015164486330
0.784776000000 -0.085273498618 0.027248215323 -0.095683133106 0.637500862948 -0.109070181725 0.636955705209 -0.070230731865 0.074065050044
0.791774000000 -0.007028633730 0.148877939524 0.555945685013 0.313097643304 0.551733562719 0.324705588204 0.020692674874 0.159327150054
0.798772000000 0.152561645355 0.073385216316 0.490915143389 -0.408908124348 0.498846794616 -0.400120070652 0.155980976752 0.079167973359
0.805770000000 0.119970358026 -0.093580980993 -0.212608969940 -0.604308942846 -0.199837341338 -0.607049391258 0.120526477220 -0.083097951726
0.812768000000 -0.017537719045 -0.117520636231 -0.641134222818 -0.012175479455 -0.639240460246 -0.027020672408 -0.031043919627 -0.098140492165
0.819766000000 -0.074625518610 -0.031161600927 -0.236540980764 0.599432776915 -0.249852078930 0.593510590905 -0.070723645992 0.011194363855
0.826764000000 -0.032909333025 0.012058226627 0.484650782277 0.428057963871 0.474223480018 0.438836813312 -0.013734746331 0.033454560381
0.833762000000 -0.046194166867 -0.017176143139 0.564035621930 -0.308658700729 0.570595754448 -0.294924456024 -0.044937076356 0.012208754731
0.840760000000 -0.099765633169 0.065425135719 -0.093792288401 -0.629858439878 -0.078087543147 -0.631352572699 -0.066579294302 0.106283037197
0.847758000000 0.025911756527 0.166104969399 -0.616540804113 -0.131416985357 -0.613433091721 -0.146055962951 0.069775503510 0.164829055153
0.854756000000 0.170414798941 0.047257991236 -0.339829172374 0.524651492792 -0.351306556131 0.517835002085 0.179930295720 0.028575961173
0.861754000000 0.099509570259 -0.110447345535 0.367198323937 0.507489933518 0.355133155279 0.514036699431 0.082622394270 -0.113910658208
0.868752000000 -0.027600294869 -0.096076713937 0.611549922930 -0.166917587958 0.613531165695 -0.151248454625 -0.048685494502 -0.068463314020
0.875750000000 -0.045383574585 -0.024813209570 0.052426941573 -0.637274368960 0.067035461796 -0.634119756895 -0.034551789399 0.015897444495
0.882748000000 -0.024340019014 -0.019498895300 -0.580113432486 -0.264639061267 -0.572523904180 -0.279720336939 -0.007016038535 -0.003281344682
0.889746000000 -0.069739364132 -0.017027087232 -0.446180475413 0.451614796514 -0.456619038908 0.439617453468 -0.064527448727 0.004739181206
0.896744000000 -0.076056607505 0.093576055324 0.270254400852 0.568899219112 0.254051436176 0.576124218687 -0.056127956482 0.111326601701
0.903742000000 0.075507522970 0.133933964894 0.617205319877 -0.053732451298 0.619915131714 -0.038019494551 0.084698794503 0.135301397933
0.910740000000 0.155711413818 -0.014275007081 0.173295522432 -0.589949157186 0.187264551849 -0.584586694080 0.152264190115 -0.008903733333
0.917738000000 0.054086830167 -0.112789538983 -0.492842244710 -0.379295699244 -0.481169643965 -0.390275560898 0.038935968362 -0.102845821055
0.924736000000 -0.032589588330 -0.074030826379 -0.532731382732 0.336782995843 -0.539922075177 0.319958220909 -0.049999685615 -0.036925074034
0.931734000000 -0.031856765009 -0.018708004975 0.136249605302 0.615829895768 0.117761827542 0.618624956172 -0.022714640109 0.016623580986
0.938732000000 -0.011182952544 -0.029183017806 0.624010770383 0.082906740170 0.619862131295 0.100668755972 -0.023030883427 -0.001154075581
0.945730000000 -0.074965160816 -0.028088332804 0.287538065559 -0.556676812075 0.306644347255 -0.545498780565 -0.065948428224 0.048255402740
0.952728000000 -0.073167391597 0.098488275634 -0.415567900366 -0.452480418025 -0.404275135281 -0.468668256530 0.001291216566 0.137756347211
0.959726000000 0.089289891534 0.117544483308 -0.563828420123 0.219280006409 -0.570669750512 0.207374759812 0.134162897751 0.090700871119
0.966724000000 0.132427610683 -0.035714554532 -0.003681626111 0.609241631612 -0.018517530367 0.607102278627 0.129832048047 -0.051853657793
0.973722000000 0.031511991592 -0.093446226091 0.580299830142 0.219611585909 0.571527278233 0.235546545062 0.015450045596 -0.086500478100
0.980720000000 -0.022347856616 -0.052758487940 0.404732395278 -0.473633771625 0.419291140772 -0.459996141430 -0.028223961981 -0.015776357320
0.987718000000 -0.018279566243 -0.023640439486 -0.304250644043 -0.541734893102 -0.288554818127 -0.551531530164 0.006026136728 0.003773452144
0.994716000000 -0.026377901101 -0.034141792432 -0.612908979207 0.099158262013 -0.615960942664 0.082316234913 -0.017638023416 -0.020260806424
