# GHZ S RI R 50.000000000000
0.001000000000 0.037972523618 -0.003393784512 0.934072660323 -0.245787039731 0.959163660603 -0.238211813954 0.025793447874 0.001080863003
0.007998000000 -0.012767325460 -0.019608190071 -0.311721359593 -0.873207514554 -0.313462416196 -0.872624591188 -0.013705538599 -0.022733110252
0.014996000000 -0.008758588003 -0.020162039742 -0.828292263513 0.360672233809 -0.826965316913 0.363619532453 -0.011349793422 -0.018708345759
0.021994000000 -0.024415423943 -0.006470257965 0.406296228472 0.789437464028 0.408521035434 0.787496252440 -0.025728418477 -0.009875508233
0.028992000000 -0.018434787644 -0.028072868200 0.752247301730 -0.449770928805 0.751414569648 -0.451332765122 -0.022774431714 -0.024547857364
0.035990000000 -0.032852570778 0.004703044022 -0.491902972272 -0.713516661990 -0.491593370037 -0.713570462855 -0.034803626010 0.001320183217
0.042988000000 -0.047626572444 -0.049955789645 -0.673453031565 0.530506813868 -0.673785371350 0.529681436886 -0.057500918472 -0.038723188026
0.049986000000 -0.097339346272 0.085820102992 0.560209567189 0.632055447465 0.559450980110 0.633457034458 -0.083946990558 0.096233322916
0.056984000000 0.062528696841 0.053316172877 0.599679414595 -0.590652278289 0.599569905044 -0.590668304242 0.072858221138 0.042018741145
0.063982000000 0.009249126969 -0.020765528083 -0.626509200169 -0.559683172419 -0.626489492894 -0.559479608548 0.002738374149 -0.028699943589
0.070980000000 -0.006486744401 -0.010580934319 -0.514658276344 0.655540598534 -0.514284981991 0.655538813294 -0.003538943427 -0.019066707086
0.077978000000 0.008649289384 -0.012686214701 0.681736933001 0.469204261116 0.681435717283 0.468927320424 -0.016960984593 -0.026531257565
0.084976000000 -0.034230846225 -0.035314469378 0.422718613714 -0.704030301449 0.422444515314 -0.703757512607 -0.043543888018 -0.020701887688
0.091974000000 0.003764176450 -0.030579922320 -0.724917154047 -0.371804770800 -0.724221379565 -0.371771229092 -0.021357628800 -0.035921863083
0.098972000000 -0.157330739902 -0.063038015887 -0.316061378780 0.729540535689 -0.317581376150 0.728795899963 -0.169361830122 -0.015637007736
0.105970000000 -0.065006492095 0.190489621467 0.729029730823 0.288198156216 0.729678157612 0.288394386800 -0.035327306683 0.200350856811
0.112968000000 0.113029713550 0.023003244450 0.256720922408 -0.753934180873 0.256651896123 -0.753829575952 0.116180283627 0.022788069250
0.119966000000 0.005155107370 -0.039907663575 -0.772420616481 -0.203904290335 -0.772147128482 -0.204100682187 0.021334064844 -0.039621748156
0.126964000000 -0.003304887894 0.000531352325 -0.151395804995 0.779569090025 -0.151867394377 0.778965692683 -0.002467503999 -0.029911948232
0.133962000000 0.017124772112 -0.050421176110 0.781755502046 0.100206664004 0.781009602233 0.101130036785 -0.024337775726 -0.050671392625
0.140960000000 -0.042352483633 -0.022583741742 0.050012688831 -0.780697725308 0.051258754600 -0.780604750031 -0.046350970087 -0.004650314089
0.147958000000 -0.021930098456 -0.111665783770 -0.769403587628 0.009165335779 -0.768786891743 0.007513237098 -0.060027144170 -0.096576811275
0.154956000000 -0.255226888060 0.024871735505 0.039391999599 0.734173362872 0.037930613067 0.734679490323 -0.237003104090 0.096127288894
0.161954000000 0.012911274635 0.234100632698 0.741838330787 -0.046682063707 0.742358318040 -0.046526540938 0.070288882888 0.226556122056
0.168952000000 0.104472774779 -0.002786133961 -0.095800948915 -0.759671726894 -0.095507574586 -0.759430939417 0.107891531649 -0.020376314901
0.175950000000 0.001451137714 -0.012676378395 -0.750365232501 0.151827948340 -0.750309578464 0.151093213480 0.015944078828 -0.022599937717
0.182948000000 0.036171873772 -0.003484478111 0.200254190992 0.734342310144 0.199906549276 0.734238942848 0.020766870233 -0.036613261328
0.189946000000 -0.009010920931 -0.064638709049 0.713309809606 -0.245237787633 0.713527245455 -0.244258201065 -0.041075890733 -0.050008426996
0.196944000000 0.007434528648 -0.029838635775 -0.292750524336 -0.690092725673 -0.292313574473 -0.690308388938 -0.002645385781 -0.030187721469
0.203942000000 -0.119400654016 -0.168155586372 -0.639284908411 0.327855995414 -0.639629812131 0.326488768894 -0.164320489206 -0.120290789302
0.210940000000 -0.258831981010 0.144203905773 0.320759760184 0.617983365151 0.319796599685 0.618724248151 -0.202690194463 0.212219118171
0.217938000000 0.083025337918 0.197129516825 0.632317714368 -0.348125508043 0.633715956273 -0.347702713730 0.139560017536 0.162349019591
0.224936000000 0.061481840293 -0.013642239100 -0.403375714099 -0.618884539969 -0.403187387109 -0.619187691201 0.059036524642 -0.033514853545
0.231934000000 0.009602984832 0.020449520106 -0.586104784554 0.446540373034 -0.587379508798 0.445424201298 0.027318117407 -0.008460118727
0.238932000000 0.050307593314 -0.017594834256 0.480894157904 0.551081696614 0.480379632030 0.551700563456 0.002496740388 -0.057290157056
0.245930000000 -0.014448580606 -0.042537688763 0.516818704448 -0.511631514181 0.517278195592 -0.510842671564 -0.043147008258 -0.019669815702
0.252928000000 0.035551775215 -0.071291097879 -0.542148629256 -0.469360779119 -0.541460578440 -0.468811227063 -0.019368436443 -0.083873894117
0.259926000000 -0.200547617985 -0.143346833483 -0.421120794521 0.539465900406 -0.421129577776 0.536997676770 -0.249058181545 -0.030482506936
0.266924000000 -0.185687661379 0.220764338603 0.537091335516 0.412739874283 0.534982342257 0.415582378068 -0.098096307306 0.275681759147
0.273922000000 0.117021774007 0.108254744528 0.406027133555 -0.573026675289 0.408216329642 -0.572006910417 0.141619118379 0.094940610208
0.280920000000 -0.002909932897 0.002332015370 -0.611765819967 -0.367561204822 -0.609424163711 -0.370494836148 0.042110482299 0.011354577874
0.287918000000 0.035411096326 0.042999312738 -0.323092067794 0.631351847067 -0.325494561167 0.630581041695 0.056388209758 -0.017687020149
0.294916000000 0.035692191348 -0.016260866631 0.647964995916 0.282692595170 0.646261799466 0.284594212758 -0.015664502831 -0.034300118282
0.301914000000 0.026012109889 -0.014081153273 0.236196838179 -0.662340245035 0.238472864335 -0.660246775092 0.011994656414 -0.013634383774
0.308912000000 0.028155293660 -0.131758743176 -0.662116180811 -0.186572867813 -0.659034093732 -0.188759129859 -0.065184696202 -0.120391605143
0.315910000000 -0.243239522069 -0.075259414881 -0.152000816882 0.647810805744 -0.157754140646 0.644215413165 -0.243875451803 0.076453870336
0.322908000000 -0.088737388972 0.225477500412 0.647923032520 0.140902381879 0.648485256305 0.145917127909 0.024235886128 0.246165258122
0.329906000000 0.078700970214 0.039444754789 0.114996554185 -0.675826135108 0.118249344148 -0.675125135138 0.100841406556 0.027436802249
0.336904000000 -0.011407606034 0.048651818617 -0.685549144489 -0.063739272395 -0.685896420185 -0.067665963309 0.052500344940 0.035397463970
0.343902000000 0.054970219802 0.032362721651 -0.023298316529 0.685651501918 -0.025885320875 0.684447017426 0.050234214346 -0.042982979113
0.350900000000 0.031231041994 -0.013415379935 0.685508124284 -0.020706748265 0.684064698964 -0.016468371437 -0.011019159665 -0.016187458682
0.357898000000 0.045145923598 -0.020991150307 -0.066180632732 -0.677239645082 -0.062051168553 -0.676338708078 0.022497919195 -0.043526849775
0.364896000000 -0.022737408420 -0.157179128846 -0.658203427542 0.108842538889 -0.656617019795 0.102209032743 -0.118029736889 -0.107352350483
0.371894000000 -0.237434465644 0.024351688235 0.130285313224 0.632032284106 0.123631532190 0.634701831633 -0.190864787229 0.143668385184
0.378892000000 0.001353583391 0.173250780842 0.637795811823 -0.142022967222 0.640164716796 -0.138372251220 0.075429279396 0.162575776439
0.385890000000 0.008830200785 0.021956867210 -0.187187519680 -0.643342160483 -0.182879436120 -0.644879626927 0.033924529814 0.030297453145
0.392888000000 0.007293470849 0.068542267130 -0.627955293470 0.226348941452 -0.629139133958 0.223110792240 0.065122661651 0.032955724307
0.399886000000 0.030729455974 0.033913625540 0.264035299588 0.613756026725 0.259192590299 0.614397600360 0.007713023283 -0.021815058113
0.406884000000 0.035436925766 0.015606278174 0.594625450697 -0.300295787663 0.596244413717 -0.295156580911 0.016888573562 0.013714390937
0.413882000000 0.052399958285 -0.020780665083 -0.334969973594 -0.571967197834 -0.329449508670 -0.573973695894 0.014195163902 -0.051012575268
0.420880000000 -0.055655111370 -0.111495671182 -0.540218538829 0.365154325638 -0.544425958371 0.358249815394 -0.117748682002 -0.044752629021
0.427878000000 -0.140140239118 0.080868831657 0.377043777494 0.517032147650 0.372850356855 0.522371295029 -0.085124451019 0.142211948451
0.434876000000 0.025302126624 0.081109954155 0.509594586837 -0.404250368664 0.513226261715 -0.399866368742 0.057190741535 0.065380239525
0.441874000000 -0.009532711723 0.039963585374 -0.437436115774 -0.484465389922 -0.432939626451 -0.488941152409 0.006678863210 0.042189240669
0.448872000000 0.013244325018 0.040193717110 -0.457881896685 0.463799372216 -0.462325267355 0.459214888646 0.036195591687 0.014084295540
0.455870000000 0.016187863455 0.037829528075 0.488151331528 0.429087015121 0.483641451314 0.434201037019 -0.006449036956 0.013472085412
0.462868000000 0.022264264493 0.015583014035 0.399528808143 -0.510578574206 0.404525753691 -0.506737791502 0.015794527861 0.010748422639
0.469866000000 0.042946834370 -0.008735796823 -0.531583596543 -0.366321681741 -0.527837620885 -0.371713064293 -0.013485413263 -0.027808409230
0.476864000000 -0.059470801151 -0.063360102182 -0.331167772598 0.543914100434 -0.336726822370 0.541289886661 -0.094089824684 0.017225114196
0.483862000000 -0.062180115947 0.078082935323 0.555603646922 0.306462417425 0.553127505411 0.311924248022 -0.017946805198 0.108908876784
0.490860000000 0.007057023303 0.033412454068 0.276828663811 -0.574968298257 0.282175593452 -0.572453945658 0.017208340781 0.037002200064
0.497858000000 -0.002326981307 0.046551277679 -0.588308944207 -0.242937864052 -0.586428519270 -0.247944158212 0.004734644577 0.056683688719
0.504856000000 0.008523939486 0.019298935907 -0.208356699362 0.600051474404 -0.214373868644 0.598173238242 0.020227215864 0.026077833554
0.511854000000 0.011490431032 0.027555761454 0.609053729534 0.173471203769 0.607151989412 0.180038251110 0.001725395056 0.031872620100
0.518852000000 -0.004357468196 0.001556896242 0.139613153159 -0.616004311599 0.145707277101 -0.614071200304 0.010474872652 0.039083911824
0.525850000000 -0.002133140901 0.026086046665 -0.620725345477 -0.104343943488 -0.619381588950 -0.111112577026 0.033597462767 0.015245013978
0.532848000000 -0.012215482900 0.013094625742 -0.069052980748 0.623492791972 -0.076087570254 0.622809509220 -0.019849318798 -0.006154031184
0.539846000000 0.008451300682 0.040589008823 0.624432524968 0.035112040463 0.623754251657 0.041846983155 -0.009785050865 0.048458148994
0.546844000000 0.019967218613 0.007142252307 0.000376686074 -0.623302212739 0.007331623015 -0.622507283084 0.012055450647 0.017428252498
0.553842000000 0.011714322946 -0.010344137357 -0.620663302013 0.033899724263 -0.619650308795 0.026352029949 -0.014541566330 0.022851476934
0.560840000000 -0.030409724834 -0.009443812227 0.068550531968 0.616263091875 0.059351212553 0.615486515987 -0.000768946341 0.043243069280
0.567838000000 -0.020331672268 0.014480880746 0.608514137254 -0.102924494532 0.609872765912 -0.093361566456 0.008381084610 0.022499669322
0.574836000000 -0.044087292070 0.034470415621 -0.136217680949 -0.599519478283 -0.125746678407 -0.601294672330 -0.006327291817 0.050401892322
0.581834000000 0.021389624166 0.062288930734 -0.588383723969 0.167553116361 -0.591678822936 0.158801227262 0.054069220038 0.025764962356
0.588832000000 0.018573070038 0.007950027412 0.198880451556 0.579077401942 0.190106970833 0.580858535754 -0.005955082597 -0.017034416584
0.595830000000 0.012010270117 0.015217639617 0.564814359239 -0.231615990420 0.567441890029 -0.221888361612 -0.004804099713 0.022791318082
0.602828000000 0.012743137948 0.010627721808 -0.261929491884 -0.549252440855 -0.251985327120 -0.551672196135 -0.016882641506 0.011570089960
0.609826000000 0.017820076241 -0.020695238632 -0.532358790660 0.290807971251 -0.535304359873 0.280260087418 -0.015565296839 0.044573023778
0.616824000000 -0.032685788075 -0.012425188117 0.318820255461 0.512068506789 0.309043477305 0.518125207042 0.012171609043 0.038145017848
0.623822000000 -0.044111076824 -0.011073827467 0.490636877246 -0.345763371147 0.496142201737 -0.337230492227 -0.023211830905 0.024139849740
0.630820000000 -0.089255077038 0.090531321432 -0.367201163297 -0.462037940528 -0.360239949682 -0.471320224552 0.015541665647 0.119705538868
0.637818000000 0.070489063866 0.114701030492 -0.448064813467 0.379643834530 -0.452365100430 0.376488386541 0.128898991458 0.003002984185
0.644816000000 0.057411603051 -0.001541121491 0.409778289595 0.434707656572 0.401937389981 0.437905679578 0.000493603175 -0.051803285898
0.651814000000 0.020092104377 0.018168348486 0.406845640308 -0.436636733482 0.411363507701 -0.429431757024 -0.000761550916 -0.014944864832
0.658812000000 0.059083888633 0.012719278578 -0.458574925009 -0.378821379298 -0.447724070650 -0.383450436115 -0.054639494469 -0.002877752786
0.665810000000 0.018344866465 -0.057960953865 -0.349106718327 0.476495919924 -0.360061625709 0.467585344178 -0.024212545318 0.062653645143
0.672808000000 -0.022893853434 -0.014739636888 0.493467701653 0.319873858110 0.488423235955 0.329509698395 0.003104103917 0.031509365939
0.679806000000 -0.080457966951 -0.028622230772 0.282671082599 -0.507015459923 0.294851186286 -0.502633633161 -0.051086712105 0.073797070757
0.686804000000 -0.077699718955 0.153591042499 -0.502328443132 -0.256160791188 -0.504001428877 -0.264535224230 0.091816423731 0.151718701659
0.693802000000 0.121294276972 0.098823115149 -0.250117864200 0.516909031596 -0.252749910767 0.511684727764 0.142261983271 -0.052724038069
0.700800000000 0.061009911524 -0.016161957629 0.543497990983 0.219002456445 0.536711895831 0.227982675389 -0.006277988332 -0.052927740648
0.707798000000 0.037054476768 0.023707318230 0.181781094324 -0.554719371905 0.191153222106 -0.548847861616 -0.009443135249 -0.033683588964
0.714796000000 0.087564307602 -0.025437814998 -0.560328951611 -0.145447018677 -0.555283244905 -0.160233312590 -0.073556557819 0.013459168773
0.721794000000 -0.004145499068 -0.079384701339 -0.114298279923 0.562863537897 -0.127336085740 0.564682845800 -0.005597703527 0.074710257628
0.728792000000 -0.031130420735 -0.053922098137 0.568072313353 0.077712487186 0.568368274700 0.087939805304 -0.017884385932 0.010681457656
0.735790000000 -0.162415293165 -0.008651522966 0.042140335985 -0.551272942441 0.051416726343 -0.556056712461 -0.055961202725 0.149309261553
0.742788000000 -0.052336700179 0.214382630071 -0.545105548177 -0.036973966772 -0.544753495167 -0.039699003178 0.184875283423 0.129319396066
0.749786000000 0.135618727490 0.079458661132 -0.016119602935 0.565976216816 -0.025993110087 0.560874926681 0.114865217372 -0.104075413869
0.756784000000 0.033272252084 0.000103443315 0.573071634209 -0.026013166557 0.572373472801 -0.013865245569 0.001540177742 -0.053405429709
0.763782000000 0.064067323037 0.060732752186 -0.064910138798 -0.565550986971 -0.050309931997 -0.565843713724 -0.041904639336 -0.060118672332
0.770780000000 0.099502282120 -0.043054793118 -0.555670958896 0.093758744383 -0.560997843703 0.081124428745 -0.076603632661 0.048916855027
0.777778000000 0.012303338412 -0.059274238874 0.127221517240 0.551643370606 0.116589088833 0.555170029136 0.010061920411 0.038161065281
0.784776000000 -0.029373670124 -0.094394722709 0.531795634333 -0.162119018818 0.536833254942 -0.151738114276 -0.081322413016 0.031608977077
0.791774000000 -0.179957997235 0.040034874673 -0.177236981976 -0.511261205852 -0.168622972039 -0.514433208684 0.001598779147 0.201178601171
0.798772000000 0.022408023347 0.202048810926 -0.509750526832 0.192145538151 -0.512357945108 0.179508136217 0.203983147186 0.059341456375
0.805770000000 0.114843179589 0.020883095484 0.223383586891 0.509937893553 0.211072100742 0.515265689328 0.067420806165 -0.097770681165
0.812768000000 0.016095095932 0.024685453737 0.496225065773 -0.260338984819 0.502955968215 -0.247519705821 0.006777683447 -0.053186876785
0.819766000000 0.100967302858 0.047909777985 -0.286391655722 -0.473755204969 -0.276917506044 -0.482061016481 -0.073853858106 -0.045852273421
0.826764000000 0.093420094482 -0.070876029310 -0.458936181775 0.310353544680 -0.463714905729 0.301704322521 -0.043489220316 0.080311363809
0.833762000000 0.029008534139 -0.088306496015 0.340342896565 0.435166461033 0.329470298105 0.441038978614 0.006707532769 -0.005172618946
0.840760000000 -0.084025972279 -0.135513530380 0.405101231399 -0.356628916086 0.410496561129 -0.344668716271 -0.112909422691 0.089147742606
0.847758000000 -0.194748802506 0.085393256811 -0.364906011443 -0.384905016850 -0.350185185794 -0.395490199454 0.094289176577 0.208901841796
0.854756000000 0.052102396013 0.170937310374 -0.376270531574 0.376846486382 -0.389553892103 0.369850884450 0.192901834316 -0.022730898811
0.861754000000 0.059216702811 0.001867452148 0.405902245905 0.365993771192 0.398125201301 0.375475730649 0.039704712119 -0.078352169331
0.868752000000 0.015493832872 0.064721170780 0.336983951537 -0.430028556182 0.347661248175 -0.425081100854 0.008788578581 -0.071983594298
0.875750000000 0.105874358114 0.033561586903 -0.447285277959 -0.313516014752 -0.440365758409 -0.319253028267 -0.079830766191 -0.011976245184
0.882748000000 0.081508187026 -0.046014141613 -0.284423973825 0.466482429580 -0.293691711712 0.456456476086 0.011794166720 0.041733918505
0.889746000000 0.050477899249 -0.095534822938 0.478266682135 0.253458218505 0.467904600732 0.263011831816 -0.051618826484 -0.035282700503
0.896744000000 -0.111657933381 -0.107643796079 0.221884180637 -0.485878500876 0.239128977103 -0.472943217906 -0.088975510116 0.130084387425
0.903742000000 -0.111590717954 0.127745456971 -0.484237909881 -0.197356322236 -0.483884697572 -0.216936940997 0.122638523948 0.147923090586
0.910740000000 0.092153551014 0.084525314725 -0.185517833901 0.494419339721 -0.196235203724 0.492926687707 0.133864075524 -0.047671488715
0.917738000000 0.022734452009 -0.003377221351 0.514328196473 0.159228522379 0.510535294548 0.171221008348 0.030883929448 -0.055744885977
0.924736000000 0.042894646366 0.063703501417 0.126692628836 -0.522936502566 0.135042457941 -0.517798003042 -0.014641229126 -0.071603170864
0.931734000000 0.111194389406 0.001538225467 -0.530125881878 -0.095094307173 -0.519615192193 -0.108388980506 -0.069348767235 0.025608199065
0.938732000000 0.070920513485 -0.057568163733 -0.063257834429 0.531393696104 -0.080268679285 0.525671053640 0.018296869793 0.017988937986
0.945730000000 0.046787697091 -0.112835102768 0.532284838081 0.028264492692 0.524417382133 0.049635027047 -0.083246320322 0.012456607691
0.952728000000 -0.133906500356 -0.090662356199 -0.002676632089 -0.516273363152 0.022837253952 -0.523608693696 -0.007782758980 0.173806267387
0.959726000000 -0.070402345362 0.129813538183 -0.509645374217 0.011061552639 -0.519459666786 0.002979989799 0.168498234060 0.073802665557
0.966724000000 0.067259975190 0.037223039465 0.031883326401 0.523927927956 0.021933618273 0.522583218382 0.091154985028 -0.060622791424
0.973722000000 -0.003124372443 0.027349669358 0.525758058396 -0.067705727258 0.526433021557 -0.057307577055 0.044435555369 -0.053253032497
0.980720000000 0.054475904901 0.070154921846 -0.100267279814 -0.521604825766 -0.085478661906 -0.516615628624 -0.032347268460 -0.056387407764
0.987718000000 0.100410820812 0.010010592210 -0.510703921181 0.130247539970 -0.511708339184 0.110986507576 -0.010104103217 0.038699473565
0.994716000000 0.088248132595 -0.038454034446 0.157097112362 0.503123493333 0.139448835036 0.505186124721 0.012527209410 -0.034271746302
