# GHZ S RI R 50.000000000000
0.001000000000 0.001479468170 0.002657136975 0.990986494245 -0.069622592044 0.989448611060 -0.074946723814 0.005438791403 0.005876728934
0.007998000000 0.020256106180 0.001884954291 0.845885786941 -0.505448726618 0.846160026780 -0.504466703515 0.019687300572 0.002825655033
0.014996000000 0.021017421016 -0.009455036671 0.531622759960 -0.820385226765 0.532026614141 -0.820472442242 0.019673995446 -0.006053732720
0.021994000000 0.013345764811 -0.017404153877 0.116309502795 -0.965180081894 0.116229950328 -0.965139734572 0.013882582101 -0.011102462011
0.028992000000 0.002448846715 -0.018267653737 -0.317260573344 -0.914013049758 -0.316764803626 -0.913563678711 0.006941991583 -0.010288827236
0.035990000000 -0.005756465737 -0.012343515778 -0.683709146549 -0.678294344621 -0.682832755987 -0.678527677199 0.003481118931 -0.005795547909
0.042988000000 -0.007596024271 -0.003449448444 -0.908754340146 -0.307832390142 -0.908581299901 -0.309182741662 0.004608997477 -0.001313568683
0.049986000000 -0.003397296699 0.003121496759 -0.948802196333 0.120707240152 -0.949009446814 0.119318607928 0.008269497335 0.000206902304
0.056984000000 0.003028393603 0.004268896232 -0.797980684108 0.521278464348 -0.798499939759 0.520325550233 0.010964336414 -0.001891154398
0.063982000000 0.007143854122 0.000407345333 -0.488390959931 0.815063475666 -0.489323965958 0.814447039927 0.010538333858 -0.005401457330
0.070980000000 0.006100505916 -0.004938977710 -0.083069987983 0.943356279430 -0.084037789475 0.943276016300 0.007135799635 -0.007365148646
0.077978000000 0.001190870216 -0.007226774463 0.337534753863 0.882207322713 0.336376017530 0.882677684208 0.003064634908 -0.006232655008
0.084976000000 -0.003736126935 -0.004447890943 0.687288689054 0.643748485513 0.686784766400 0.644920970204 0.001201997521 -0.002050734774
0.091974000000 -0.005017070497 0.000970205897 0.897001469520 0.278266693189 0.896441933594 0.278401431568 0.003289674669 0.001776281269
0.098972000000 -0.002025069223 0.005213628103 0.925654947580 -0.141979481061 0.925793259795 -0.140978654764 0.007244267089 0.002582336133
0.105970000000 0.002699077870 0.005862937149 0.769376344437 -0.532217816364 0.769921851101 -0.531364473498 0.010449070664 -0.000199503916
0.112968000000 0.005763875968 0.002648890949 0.458215311031 -0.810929862085 0.459260731314 -0.810450985479 0.009792826817 -0.004682147292
0.119966000000 0.004803127176 -0.000826032029 0.057430803612 -0.927594318773 0.059288835844 -0.927420834077 0.005765288733 -0.007742259690
0.126964000000 0.001685756327 -0.001395451644 -0.352430851552 -0.857576876258 -0.351028329954 -0.858242805831 0.000551154916 -0.005828648614
0.133962000000 -0.000517829126 0.001202002572 -0.689725343391 -0.616091660234 -0.688776529527 -0.617515148356 -0.002129769632 -0.001170529447
0.140960000000 0.000824427375 0.004718823352 -0.887088272330 -0.252977996435 -0.887187287269 -0.254543064114 -0.000778092861 0.004005007404
0.147958000000 0.004803118037 0.005674364062 -0.906566752050 0.159377273530 -0.906935647228 0.157575875256 0.003527710130 0.006299636480
0.154956000000 0.008513576214 0.003109685895 -0.744597628693 0.537506668533 -0.745240429267 0.536475792983 0.007809478145 0.004619176370
0.161954000000 0.008463878793 -0.001248834823 -0.435022873009 0.806408872042 -0.435998452192 0.806130665174 0.008580537367 0.001393178237
0.168952000000 0.004694733577 -0.004141514315 -0.039698897911 0.913460602493 -0.040613780039 0.914091827120 0.006141265829 -0.000932856815
0.175950000000 -0.000039672893 -0.002932863705 0.361745388440 0.837550662198 0.361324312173 0.838361683158 0.002264905648 -0.000314489016
0.182948000000 -0.002247224097 0.002755303861 0.689649793974 0.594751360161 0.689360498586 0.595661083936 0.000778238270 0.003706064287
0.189946000000 0.001620733748 0.007870308860 0.878405842891 0.233352759584 0.878337675821 0.234649188418 0.002873128149 0.007512277725
0.196944000000 0.008123273426 0.008305886286 0.890543849873 -0.172989944149 0.890926594004 -0.171760560534 0.007060956018 0.008898386701
0.203942000000 0.012900996252 0.004008462728 0.723943467724 -0.542892328892 0.725493110992 -0.541491589311 0.010484227806 0.007630991833
0.210940000000 0.012714366076 -0.002718250763 0.415801531515 -0.802095633647 0.415996128904 -0.802506559185 0.011600287146 0.004099270772
0.217938000000 0.007395815140 -0.006379334265 0.022778917842 -0.901422338192 0.024007868889 -0.902450310415 0.010074012500 0.001716069132
0.224936000000 0.001818905287 -0.004903007311 -0.372367687428 -0.819531117034 -0.371741189886 -0.820314647324 0.007768045756 0.002044697707
0.231934000000 -0.000321212569 0.000190363014 -0.691353149075 -0.573703752148 -0.690609829975 -0.574462751268 0.007118187136 0.003687473889
0.238932000000 0.002115263299 0.004961456140 -0.870368602473 -0.214403194402 -0.870099940217 -0.215964583324 0.007831451864 0.005361023393
0.245930000000 0.007293452641 0.006004787989 -0.874992103331 0.185851855400 -0.875547724531 0.184869055055 0.009790608513 0.005914842970
0.252928000000 0.011033689256 0.002453551323 -0.705420105964 0.547759269672 -0.706095056948 0.547308345598 0.011224233886 0.004611610753
0.259926000000 0.010326003763 -0.002336618715 -0.395318953530 0.799050971235 -0.396117866190 0.799084187511 0.011034830732 0.002742775373
0.266924000000 0.006075666457 -0.004501386284 -0.007370414499 0.889853796619 -0.007872813571 0.889650560958 0.009452659150 0.001695237222
0.273922000000 0.001969554926 -0.002104309878 0.380527279415 0.802382817812 0.379142553802 0.802689321017 0.007605039042 0.002240754571
0.280920000000 0.001251676634 0.002677451425 0.691002485023 0.555648847375 0.689327400952 0.556635936663 0.006259266964 0.004248438303
0.287918000000 0.004961383921 0.006282625670 0.861876771900 0.198609586819 0.861575893237 0.200122532494 0.006869815393 0.006771198868
0.294916000000 0.010725465182 0.005210119034 0.860511452184 -0.196427058023 0.861058314206 -0.194824986942 0.008620604628 0.007507162428
0.301914000000 0.013227541875 -0.000158892906 0.688005413554 -0.550131293595 0.688330960141 -0.549096074075 0.008945418370 0.006563510949
0.308912000000 0.010494326314 -0.006535082083 0.379800564636 -0.794013035889 0.380385724209 -0.792777636048 0.008660358046 0.007494773867
0.315910000000 0.003120705029 -0.008852045861 -0.004271298607 -0.879055743363 -0.002209939033 -0.878018044735 0.008127970293 0.008250651804
0.322908000000 -0.004354678854 -0.004231932477 -0.386433779978 -0.788274736196 -0.383864708157 -0.788396061138 0.008086538769 0.010562453199
0.329906000000 -0.006230390899 0.004854833129 -0.689960101655 -0.539524268911 -0.688341449019 -0.541456664192 0.010446799806 0.013408055465
0.336904000000 -0.000905258315 0.012697087237 -0.854100677021 -0.184382220962 -0.854096160483 -0.186533690940 0.014742989293 0.014485427891
0.343902000000 0.008472416704 0.014710990126 -0.848050623805 0.205400632301 -0.848628413626 0.203636306881 0.019234765068 0.012516898902
0.350900000000 0.016405035890 0.009563690321 -0.672503149860 0.553328937492 -0.673482267427 0.551943060496 0.021931737194 0.007968117245
0.357898000000 0.018248290226 0.000742556551 -0.364535249151 0.789085751952 -0.365802517888 0.788155918788 0.021234338145 0.002901127041
0.364896000000 0.013663998700 -0.005975530801 0.016136485785 0.868142392744 0.013553442659 0.867948334263 0.018091384491 -0.000240189421
0.371894000000 0.006766410941 -0.006733499050 0.391640070259 0.772885210523 0.389920132135 0.774159259231 0.014578011640 -0.000365985600
0.378892000000 0.002722050909 -0.002964097392 0.688475397513 0.524422369334 0.687514819789 0.526748047188 0.012956845005 0.001022066723
0.385890000000 0.003405987710 0.001378375238 0.846975335634 0.172463754701 0.847044506645 0.173992861900 0.012995192194 0.001713388151
0.392888000000 0.006942022440 0.002447743475 0.836006318958 -0.212846858973 0.836869751448 -0.211434358298 0.012990428132 0.001354152626
0.399886000000 0.009511425663 -0.000380299193 0.658778129548 -0.555541998261 0.659979723439 -0.553673634158 0.011714514703 0.000343034738
0.406884000000 0.007961159820 -0.004601357517 0.350525444479 -0.785731099683 0.352705598153 -0.784276518728 0.009346910420 0.000696247681
0.413882000000 0.002424487094 -0.005953439412 -0.026452534766 -0.858327041276 -0.023413445757 -0.858990472268 0.007194921552 0.003616810292
0.420880000000 -0.002672519338 -0.001920523338 -0.396685416283 -0.760169835606 -0.395188149558 -0.761950976099 0.007882111682 0.007776206382
0.427878000000 -0.003422397817 0.005010345996 -0.687094825663 -0.511168676004 -0.686660308020 -0.513227580029 0.011707954770 0.010986663756
0.434876000000 0.001327988323 0.010990643283 -0.839886845038 -0.161205015636 -0.840385543250 -0.162409659090 0.017182292872 0.010855795776
0.441874000000 0.008979370652 0.011852252410 -0.825243973110 0.220207056851 -0.825598536247 0.218987530039 0.021498442656 0.007081246562
0.448872000000 0.014763786334 0.007499548004 -0.645985003112 0.556742637555 -0.647325691033 0.555851458559 0.022357183590 0.001424030120
0.455870000000 0.015301467773 0.001354212406 -0.338500166187 0.781532428251 -0.340083001372 0.781137368550 0.019580288290 -0.002722798905
0.462868000000 0.011554738996 -0.002339432737 0.035112338908 0.849626547019 0.034298252543 0.850158769010 0.015475142375 -0.003785043419
0.469866000000 0.008104251808 -0.001888372627 0.400796356416 0.749103211099 0.399911991807 0.749958988421 0.011418954228 -0.002519141734
0.476864000000 0.006646152170 0.001052579591 0.686294254206 0.499111174258 0.685998293319 0.500292127704 0.010358165242 0.001232387151
0.483862000000 0.009199652596 0.003706340776 0.835206840069 0.144902815676 0.834115365250 0.151365675645 0.012623915368 0.003177234847
0.490860000000 0.012624506281 0.002957369628 0.815079574317 -0.228077798540 0.815462201597 -0.226728773751 0.014710801802 0.003273379606
0.497858000000 0.014252030229 -0.001123350386 0.633629222866 -0.559027958245 0.634473294964 -0.559041894703 0.015377334521 0.001549473907
0.504856000000 0.011377255715 -0.005098856279 0.326919983835 -0.778214486178 0.327672110857 -0.778923911921 0.013269700148 0.000167340334
0.511854000000 0.006117824110 -0.005142083837 -0.044561087709 -0.841923208377 -0.044431088109 -0.842369779531 0.010367273756 0.001380117162
0.518852000000 0.002880130463 -0.000291110451 -0.406227973063 -0.737532539624 -0.406071906278 -0.737533989265 0.009659624278 0.005060401632
0.525850000000 0.004802241016 0.005743454294 -0.685922146776 -0.486334314954 -0.685306237327 -0.487156805764 0.011709678097 0.007969080349
0.532848000000 0.011197258478 0.008520460288 -0.828002492187 -0.139302021906 -0.827834599099 -0.140966532469 0.013987638391 0.009488584687
0.539846000000 0.018340508151 0.005332769804 -0.805588816623 0.234341447921 -0.805879108348 0.233485979407 0.016134335463 0.009557833397
0.546844000000 0.021243134764 -0.002902645035 -0.622389953410 0.561305226437 -0.622815476438 0.560579783163 0.017554836279 0.008899072844
0.553842000000 0.017070159767 -0.011248459152 -0.315939719075 0.775012930022 -0.316071742004 0.774418676377 0.018190825451 0.008507299593
0.560840000000 0.007675032090 -0.014643029172 0.053673455554 0.834367445181 0.052351771930 0.833256108151 0.018770110633 0.009120532365
0.567838000000 -0.001966443291 -0.010252955912 0.411165458142 0.726451011322 0.408516832724 0.726378905168 0.020710856992 0.010092993439
0.574836000000 -0.005878638202 -0.000222972350 0.684827176756 0.474453448442 0.683111132662 0.476118206366 0.023621178562 0.010273428826
0.581834000000 -0.001146609516 0.009551892784 0.821609368779 0.128934078184 0.821914504979 0.130977851908 0.026419730912 0.008074698011
0.588832000000 0.008269641309 0.012400238201 0.794747940707 -0.240986082913 0.795726268958 -0.240438265365 0.027846999929 0.004438342422
0.595830000000 0.016547784561 0.007835903295 0.609972928702 -0.562136652010 0.610410967609 -0.561761886226 0.026574221868 0.000515356444
0.602828000000 0.018331223523 -0.001212301763 0.304491864052 -0.770755852919 0.304835622774 -0.769504510105 0.023614320486 -0.001094873257
0.609826000000 0.012716980321 -0.008289589307 -0.061112038589 -0.825348897154 -0.058732528908 -0.824529766134 0.020879668856 -0.000089054743
0.616824000000 0.003504698341 -0.008429965704 -0.413308406174 -0.715385054553 -0.411088871669 -0.716453682042 0.020325688894 0.003124032696
0.623822000000 -0.002309997057 -0.001059431811 -0.682387487557 -0.463523101201 -0.681857764823 -0.466295685910 0.023491267232 0.005220894816
0.630820000000 -0.001127074757 0.007812058016 -0.815518284532 -0.120141429297 -0.816795012773 -0.122046290465 0.027894073312 0.003833211716
0.637818000000 0.006437706344 0.013309474889 -0.785700016303 0.245547841775 -0.786338008776 0.245348833134 0.030897129289 -0.000806041198
0.644816000000 0.015648629525 0.011693604521 -0.600457418186 0.561768552431 -0.599806467367 0.561311937141 0.030369318126 -0.007110043934
0.651814000000 0.020748290816 0.004163184895 -0.296077893391 0.766356504917 -0.296531175032 0.764558159061 0.025969592461 -0.011717601785
0.658812000000 0.019327587913 -0.003831041301 0.066970603115 0.818247831559 0.064707325537 0.816544017557 0.020340428950 -0.012704857760
0.665810000000 0.013649279565 -0.007552590717 0.415765106143 0.706268594009 0.413165695929 0.707554235743 0.016396961303 -0.010280693159
0.672808000000 0.007782217499 -0.006858013376 0.681347733729 0.454411866265 0.680185444377 0.456401958666 0.015305376799 -0.007607798094
0.679806000000 0.005105547645 -0.002705490337 0.810274195443 0.112761025716 0.810522255700 0.114114066485 0.016135525371 -0.006069325705
0.686804000000 0.006849445486 0.000974399317 0.777996648589 -0.250807296776 0.777837618655 -0.249519722670 0.017192421770 -0.006701175589
0.693802000000 0.009912168449 0.001283920150 0.590781361580 -0.563631917185 0.591257705852 -0.561670719084 0.016570455621 -0.008475319853
0.700800000000 0.011557586362 -0.000596759087 0.286226451786 -0.763770491485 0.288267321053 -0.762328106924 0.013831751508 -0.009843841662
0.707798000000 0.010555340428 -0.002542860744 -0.074412451205 -0.811519261004 -0.071415015733 -0.811820199966 0.010570914724 -0.008365749677
0.714796000000 0.008304156109 -0.002407851533 -0.419509747681 -0.697100765526 -0.417683732754 -0.699503180987 0.008838654429 -0.004783748419
0.721794000000 0.007464619518 -0.000066263779 -0.680634440825 -0.444385763456 -0.680076626420 -0.446381120828 0.009837146596 -0.000992979144
0.728792000000 0.009801874900 0.002466894676 -0.805291969485 -0.104332338484 -0.805438995345 -0.105993197519 0.013028334464 0.001164840327
0.735790000000 0.014046943528 0.002253998545 -0.769926175997 0.256660996979 -0.770544222873 0.254588122736 0.016686074657 0.000526111268
0.742788000000 0.016928989941 -0.001031264542 -0.581069425525 0.565483837518 -0.582419212335 0.563797901198 0.018724750980 -0.002105009575
0.749786000000 0.016639272757 -0.006160704607 -0.276651601072 0.760936226507 -0.278247110841 0.760579712219 0.018172596340 -0.004369988023
0.756784000000 0.012676509359 -0.009455432339 0.081854751762 0.804363126167 0.080157070821 0.805611531183 0.016095391808 -0.005468558408
0.763782000000 0.007560409683 -0.008474432737 0.423202066177 0.687193358251 0.422759673476 0.688807078008 0.014362322598 -0.003726104487
0.770780000000 0.005130546655 -0.003768973818 0.678344327838 0.433456756091 0.678837639826 0.434353048428 0.015439164580 -0.001030594968
0.777778000000 0.007027064707 0.000481538877 0.799256252953 0.095158744153 0.798568311654 0.096628194330 0.019334906607 0.000527798520
0.784776000000 0.010115880814 0.002349218862 0.759766518554 -0.260071577066 0.760376881100 -0.258760636989 0.023598782804 -0.002705354578
0.791774000000 0.014987599123 0.001519242012 0.571278860375 -0.564515550849 0.572661742913 -0.563760035634 0.022990083037 -0.007339803055
0.798772000000 0.016777043778 -0.003202411792 0.268673825148 -0.756336380266 0.270399508082 -0.756736352333 0.020000831765 -0.009815258451
0.805770000000 0.013929703376 -0.006898945216 -0.087135845550 -0.797943797008 -0.086005184422 -0.798343604105 0.016273848416 -0.009163180874
0.812768000000 0.008914014281 -0.006277647648 -0.425420352133 -0.679464550148 -0.424911453541 -0.679953846415 0.014191162109 -0.005435100198
0.819766000000 0.006104387537 -0.001142546624 -0.678772241938 -0.425589211948 -0.677430480793 -0.426706022742 0.016021602759 -0.001259725969
0.826764000000 0.008549220968 0.005045210033 -0.795052777834 -0.087984876106 -0.794644000873 -0.089235833957 0.020966799724 0.000463790133
0.833762000000 0.015081012360 0.007543549613 -0.753418079206 0.266392226595 -0.754034792732 0.265253433970 0.025525548644 -0.001397568022
0.840760000000 0.021633798629 0.004628238844 -0.562067270808 0.567617724217 -0.562519777661 0.566886607070 0.027869644540 -0.006393799888
0.847758000000 0.023722778806 -0.002063526329 -0.258751680622 0.754550469439 -0.258737342359 0.754544259240 0.025760445338 -0.011447059911
0.854756000000 0.020426804236 -0.008342732134 0.095097759101 0.790442501092 0.094603539584 0.790750896214 0.021028198833 -0.013383900734
0.861754000000 0.013807150472 -0.009947140669 0.428526472384 0.669927832056 0.427788577318 0.669726861232 0.017018236512 -0.010921226765
0.868752000000 0.008789733492 -0.006020539354 0.676283183693 0.415762927151 0.675381932348 0.417081876197 0.016286145443 -0.006387934309
0.875750000000 0.008954487647 0.000476647507 0.788979260681 0.081558228803 0.790153145952 0.082334921424 0.019185472725 -0.003217458872
0.882748000000 0.013517015547 0.004108540319 0.744786991628 -0.271561307370 0.745866606065 -0.270704395835 0.023096287953 -0.003629709374
0.889746000000 0.019635221839 0.002585919973 0.551887875057 -0.566914203664 0.552281220595 -0.567039414021 0.025562421511 -0.006463443308
0.896744000000 0.022338412112 -0.003665207614 0.250520452499 -0.749263795046 0.250360652281 -0.748962271177 0.025044152415 -0.010574390989
0.903742000000 0.018823517763 -0.010243668191 -0.100238025460 -0.782829085436 -0.098615817130 -0.781796786275 0.021602281760 -0.012353357665
0.910740000000 0.010948921508 -0.011866833649 -0.430685551473 -0.661036188483 -0.427728985055 -0.662222671741 0.018872836017 -0.010327222774
0.917738000000 0.004279481441 -0.006671199167 -0.674843572013 -0.407544392454 -0.673770569507 -0.409668037248 0.019473162892 -0.006938964146
0.924736000000 0.003148477933 0.001906324767 -0.783642103548 -0.073299596234 -0.784365745538 -0.075273507626 0.022912308349 -0.005586889468
0.931734000000 0.009021694618 0.009003886987 -0.736829043111 0.273939978010 -0.737196727461 0.274658730691 0.027258202508 -0.008467217058
0.938732000000 0.018956126115 0.009657199205 -0.544108042223 0.566563156500 -0.542688773326 0.565748834526 0.028938914021 -0.013810810426
0.945730000000 0.026057462843 0.002336274215 -0.243787500213 0.746433323499 -0.244429491863 0.743154379706 0.026704372712 -0.019464839160
0.952728000000 0.025786828180 -0.007872451965 0.104311720386 0.777331582005 0.101867867822 0.775101246719 0.021484315382 -0.022989435828
0.959726000000 0.018488946278 -0.014737689704 0.431903320208 0.653913247781 0.429456371178 0.654567539558 0.016210684435 -0.021844412675
0.966724000000 0.008412567599 -0.014226152017 0.673170609697 0.400531070078 0.672425518038 0.402235030279 0.014258982528 -0.018854137253
0.973722000000 0.001649357999 -0.006506997872 0.779763479156 0.068198902454 0.779712841586 0.068345766761 0.015485278130 -0.016435454361
0.980720000000 0.003386381283 0.003238045982 0.731152818575 -0.277816521281 0.730195880730 -0.277525265252 0.018007040674 -0.017120540143
0.987718000000 0.011977058639 0.008152374480 0.537449594620 -0.566690798949 0.535545771236 -0.565406280909 0.019387685462 -0.021393199718
0.994716000000 0.020939786522 0.005775831757 0.237374468151 -0.743950603717 0.237686733992 -0.740802736738 0.016908865278 -0.025770460324
1.001714000000 0.025877987911 -0.001853903786 -0.110547910016 -0.772771756344 -0.107672776241 -0.770679106928 0.011495112385 -0.027831135568
