# GHZ S RI R 50.000000000000
0.001000000000 0.005748728536 0.000616553598 0.995515999768 -0.050839828373 0.998408855692 -0.048989916733 0.003919655613 0.000494837347
0.006999000000 0.044339087404 -0.036312390139 0.976713595793 -0.354158852849 0.947365918612 -0.354813188129 0.044077740099 -0.037631634410
0.012998000000 -0.004211401941 -0.025302042509 0.807492526093 -0.567243646113 0.807727779243 -0.567035700482 -0.003984737723 -0.026312918228
0.018997000000 -0.022052993516 -0.030659892230 0.620721718279 -0.773388929287 0.622890421136 -0.769648252747 -0.021534734721 -0.032763802833
0.024996000000 -0.035414535824 -0.025187838537 0.383462336853 -0.902801470732 0.383107689217 -0.902838567111 -0.035219035135 -0.028608065147
0.030995000000 -0.046487879782 -0.012789335747 0.123471265044 -0.975073788110 0.125208339297 -0.974092831095 -0.047579782183 -0.016989687015
0.036994000000 -0.048762402537 0.003076577477 -0.148195302963 -0.965929228783 -0.148567869783 -0.965351520584 -0.051358383185 -0.000810487204
0.042993000000 -0.041851979123 0.017816717633 -0.413628202460 -0.890320531583 -0.412724960546 -0.887479801054 -0.046105060317 0.014789517144
0.048992000000 -0.029256988937 0.025753173867 -0.633870757804 -0.741528548865 -0.633829665350 -0.740245308375 -0.034237353530 0.024170505085
0.054991000000 -0.014402832658 0.025762164394 -0.815449395153 -0.542577568084 -0.813119743861 -0.540078265712 -0.019157484852 0.025716262371
0.060990000000 -0.002444417229 0.017122975727 -0.928140784953 -0.293860489982 -0.927127920619 -0.293778240178 -0.006024575378 0.018042276311
0.066989000000 0.003052277857 0.003784886913 -0.977296214761 -0.027449795839 -0.974010614967 -0.028096748216 0.000942819291 0.004902904333
0.072988000000 -0.000291407998 -0.010337504877 -0.941262233558 0.240144268073 -0.940591555696 0.239534614642 -0.001238086315 -0.010147015492
0.078987000000 -0.010662301006 -0.020320406289 -0.842039804362 0.490957727368 -0.839780864682 0.489333858751 -0.011303425331 -0.021660408109
0.084986000000 -0.025167207559 -0.022860661924 -0.671628881427 0.698707615664 -0.671290824569 0.697915164593 -0.026628254457 -0.025308300154
0.090985000000 -0.039062929885 -0.017471262939 -0.456247869911 0.859331008161 -0.455136647088 0.856537809183 -0.041612705536 -0.020133603867
0.096984000000 -0.047591108647 -0.005143963511 -0.201779536960 0.946129365939 -0.202175616870 0.945050049130 -0.051163339839 -0.006887856615
0.102983000000 -0.048728861135 0.009554721115 0.066494087241 0.968669321264 0.064958096066 0.965379336987 -0.052374203149 0.009336837857
0.108982000000 -0.041785194762 0.022363865823 0.327172825928 0.908135141190 0.325369853514 0.907458580509 -0.044141713593 0.023414421558
0.114981000000 -0.029718809721 0.029711228943 0.565170049147 0.786561977471 0.562339859370 0.784953720000 -0.029791558528 0.030939434462
0.120980000000 -0.016033873803 0.029137941343 0.754895875919 0.597724467727 0.753607695961 0.598811221861 -0.013625973170 0.028789911498
0.126979000000 -0.005081440997 0.021985668036 0.893413225705 0.369419935052 0.890326434304 0.370209879526 -0.001304253075 0.018382700558
0.132978000000 -0.000341192453 0.010149961166 0.955458647704 0.110905313672 0.955074286070 0.110927871033 0.002424480543 0.002709557214
0.138977000000 -0.002632461907 -0.001875175048 0.953550269909 -0.156081250337 0.950621028552 -0.155724519697 -0.002866662711 -0.012352488943
0.144976000000 -0.011394768568 -0.010076791529 0.869867113264 -0.409235177170 0.867974511537 -0.409154747376 -0.016200778712 -0.021512318310
0.150975000000 -0.022918151805 -0.012377835957 0.726691412247 -0.635142447972 0.723275176977 -0.632289803245 -0.032073943878 -0.022286258064
0.156974000000 -0.033641972301 -0.007685864903 0.520796177890 -0.805227710512 0.520163993498 -0.803261774828 -0.045512915211 -0.013835096423
0.162973000000 -0.040440196469 0.001920669144 0.280399726967 -0.919816200356 0.281189907431 -0.915302217364 -0.052633118130 0.000203533271
0.168972000000 -0.040705547955 0.013665113877 0.018486166725 -0.954832247205 0.020481638257 -0.953422426150 -0.050570400590 0.015750537792
0.174971000000 -0.035280678831 0.023933603922 -0.244153809407 -0.926443682097 -0.241640333763 -0.924169131914 -0.040999570333 0.027665784599
0.180970000000 -0.025192094614 0.029393040113 -0.484845734789 -0.820507577897 -0.483294634220 -0.820961695833 -0.026639433337 0.031875511019
0.186969000000 -0.014127758079 0.029376181123 -0.693751525756 -0.660125894164 -0.691336225766 -0.658942941347 -0.012834403501 0.028369411387
0.192968000000 -0.005057028420 0.023666161730 -0.844191805439 -0.443178609212 -0.843149551679 -0.443371196900 -0.003920456969 0.018047247092
0.198967000000 0.000079155152 0.014591958548 -0.937949319497 -0.195243361637 -0.934601093708 -0.194723935115 -0.001528033307 0.005309994327
0.204966000000 -0.000368910728 0.004466237125 -0.950637400235 0.069967991819 -0.948877088519 0.068600186780 -0.006582433607 -0.005897199988
0.210965000000 -0.005518218750 -0.004183303333 -0.897564011822 0.329350117956 -0.894632656337 0.326175841402 -0.016014816371 -0.012582897136
0.216964000000 -0.014215647869 -0.008708669111 -0.767622134204 0.558789098735 -0.768138196581 0.556509206267 -0.026809136024 -0.013022702984
0.222963000000 -0.024216298648 -0.008907848634 -0.587074440135 0.749250321968 -0.587147862672 0.745941270590 -0.035711268844 -0.008473425301
0.228962000000 -0.032924939376 -0.004228381043 -0.358381193059 0.875891331495 -0.360099605809 0.875183238411 -0.040112059731 -0.000851592266
0.234961000000 -0.038976089243 0.004055551617 -0.106976899627 0.944427203245 -0.107201169050 0.941990089350 -0.040641690682 0.007084522531
0.240960000000 -0.040540275479 0.014479713395 0.154686118171 0.933560370863 0.154286135664 0.932789834715 -0.037435924167 0.012977652507
0.246959000000 -0.037327313540 0.024997854137 0.407197945649 0.859392329708 0.404348160717 0.856473846129 -0.032776939215 0.016199294105
0.252958000000 -0.029525918253 0.032720780060 0.623560497928 0.711806302214 0.621182708281 0.710816138030 -0.028201157467 0.016557231033
0.258957000000 -0.018361210875 0.036363933710 0.798456980794 0.514714466675 0.793336775602 0.514346746894 -0.024511999048 0.015219045244
0.264956000000 -0.006881805588 0.034095606682 0.903437859492 0.274719053178 0.900804026701 0.276855197594 -0.022434182140 0.012546559425
0.270955000000 0.002370002360 0.026508600073 0.946827718798 0.017983516036 0.943529768820 0.020321396778 -0.021822143009 0.009487511738
0.276954000000 0.006461135616 0.014897408512 0.909810539659 -0.240406749613 0.910461197947 -0.237274382925 -0.022697955109 0.006501189047
0.282953000000 0.004099240115 0.002298976979 0.813366394428 -0.480887066998 0.812716686884 -0.478374195448 -0.024832905682 0.003805718842
0.288952000000 -0.005129671741 -0.007354071814 0.647581849907 -0.681960984122 0.648881985790 -0.680967243228 -0.028460302220 0.001968998699
0.294951000000 -0.019027043210 -0.011045451155 0.438591416041 -0.836812641853 0.439081771194 -0.834485488915 -0.033583423986 0.001516184429
0.300950000000 -0.033308736231 -0.005916085113 0.191515197364 -0.920352078711 0.192833532331 -0.920010782744 -0.039569548850 0.003916135029
0.306949000000 -0.043572549903 0.006693634965 -0.066993398498 -0.941446161495 -0.066481378534 -0.938868058350 -0.044696144594 0.009519418748
0.312948000000 -0.045325316584 0.023855767383 -0.321223834929 -0.881707142653 -0.319288273503 -0.881766295472 -0.046975702934 0.017924968628
0.318947000000 -0.037412013144 0.040454502857 -0.551250974510 -0.763499465683 -0.549171548305 -0.762154233786 -0.044919640931 0.027534015627
0.324946000000 -0.021115749502 0.050556986933 -0.735179256452 -0.580499564224 -0.734230220087 -0.581300226651 -0.037869476425 0.035359408463
0.330945000000 -0.001194451017 0.051002585022 -0.869407376166 -0.359545256200 -0.866931053252 -0.359195402659 -0.027455909933 0.038963973035
0.336944000000 0.015999458775 0.040010554612 -0.929786795875 -0.106696442246 -0.929665446938 -0.107779690124 -0.016343353834 0.036402550021
0.342943000000 0.025020961313 0.021485155724 -0.927762552933 0.152526352311 -0.925027782652 0.151682577581 -0.007958775900 0.028349361252
0.348942000000 0.022371877942 0.000847750870 -0.846242237959 0.398599256843 -0.845414119867 0.397877948166 -0.005810310150 0.016623208349
0.354941000000 0.008674711401 -0.015197815089 -0.707440404075 0.618045736640 -0.705778536849 0.615064590176 -0.010660814325 0.005503314547
0.360940000000 -0.011824966396 -0.020551770365 -0.508810094681 0.783580432970 -0.509073882058 0.781815534213 -0.021885567221 -0.000922158289
0.366939000000 -0.032171083310 -0.013369035104 -0.276690956149 0.896285209620 -0.276556510936 0.893277965745 -0.035590117364 0.000275282562
0.372938000000 -0.044591599720 0.004570573957 -0.020505566086 0.932456904477 -0.021676477725 0.931876668912 -0.046574731696 0.010199593644
0.378937000000 -0.044826834076 0.026828273144 0.235733765815 0.906421030620 0.234943568071 0.903984355556 -0.050240956248 0.025287647003
0.384936000000 -0.031831442042 0.045413274244 0.473349998804 0.802758588386 0.472134720091 0.802208849416 -0.044390958992 0.040342597144
0.390935000000 -0.010165214968 0.053826166098 0.677746518022 0.645058284710 0.674471066596 0.643142147658 -0.030852657626 0.050356766482
0.396934000000 0.012823213636 0.048027887907 0.823782845815 0.432372664209 0.821313024826 0.432235662542 -0.013579820891 0.050813882316
0.402933000000 0.029283012403 0.029943209074 0.914244547715 0.191113037226 0.909616386771 0.192445234042 0.001535355308 0.041428380663
0.408932000000 0.032145671032 0.005400981139 0.926426562726 -0.065922695591 0.924665364641 -0.062654278868 0.008313235442 0.024464384281
0.414931000000 0.020636569709 -0.017210416280 0.876722962263 -0.317940039106 0.874921429505 -0.313800758154 0.004277649133 0.006099542176
0.420930000000 -0.002436276187 -0.029131406404 0.752721453936 -0.542518002026 0.754224001599 -0.539244014311 -0.010721564052 -0.006430975758
0.426929000000 -0.028539138858 -0.026015800894 0.577719309732 -0.730477864663 0.578677009133 -0.727568749923 -0.030913940863 -0.008379130137
0.432928000000 -0.048425913849 -0.008252120452 0.353134522249 -0.855989586123 0.354844561073 -0.855495391271 -0.049229303351 0.002235126660
0.438927000000 -0.055433095781 0.017875573265 0.106062426729 -0.922994749131 0.106911506335 -0.920039762602 -0.059265813090 0.022281692039
0.444926000000 -0.046004673537 0.043697701788 -0.150462963028 -0.910697000957 -0.147892423192 -0.909510432209 -0.056069397280 0.045170206873
0.450925000000 -0.023927765301 0.060226804497 -0.394464793517 -0.837612380427 -0.389854692395 -0.835059779162 -0.040916102115 0.063324295423
0.456924000000 0.003833361007 0.061363896170 -0.603230106723 -0.694088722471 -0.599621166967 -0.695572734901 -0.017870986673 0.069939440921
0.462923000000 0.027535875813 0.047004885108 -0.772883393625 -0.506036212492 -0.768159051697 -0.508401225718 0.005251003531 0.063356771022
0.468922000000 0.038533402461 0.021659146780 -0.877719262898 -0.275624128213 -0.876928972368 -0.280009814917 0.019969542759 0.044799141442
0.474921000000 0.033566631457 -0.004950483311 -0.924748102433 -0.025367635964 -0.924045882550 -0.029573563187 0.022149496226 0.021770425795
0.480920000000 0.014419449992 -0.023597369310 -0.892691369523 0.228242952862 -0.895053086458 0.225923289453 0.010500905585 0.002194263075
0.486919000000 -0.011639979262 -0.028146538600 -0.800440879793 0.463598971732 -0.799559659835 0.464578053446 -0.010253988382 -0.006900418588
0.492918000000 -0.035367058913 -0.016783349942 -0.635804193734 0.663780988022 -0.636895502725 0.663275922977 -0.032416632704 -0.001861787387
0.498917000000 -0.048346734375 0.005691404037 -0.430788142721 0.813841409893 -0.430179480136 0.811347048269 -0.047760152192 0.015072903103
0.504916000000 -0.045928912913 0.031635649357 -0.190955559989 0.893240650251 -0.193279843382 0.892327650876 -0.050529656575 0.038149083178
0.510915000000 -0.030015419655 0.051602730634 0.058168992146 0.914430693477 0.054271203371 0.912576031770 -0.039820963909 0.059413419387
0.516914000000 -0.005380133844 0.058286248177 0.301636160715 0.860497637971 0.298774015552 0.862368511024 -0.019068511876 0.070484983700
0.522913000000 0.017772577869 0.050744727917 0.528070093137 0.750975794020 0.525358396494 0.752641948824 0.004299884040 0.069111675302
0.528912000000 0.032162061081 0.032101338651 0.709605936194 0.578187703173 0.710807592896 0.581658603653 0.022365807558 0.055216612412
0.534911000000 0.034124688497 0.009618355526 0.847552388891 0.362956481730 0.847866097324 0.364898698036 0.030090798180 0.034393038447
0.540910000000 0.023204084627 -0.009539396949 0.911304630728 0.114924928624 0.913532238728 0.115697661364 0.024665811619 0.013548710891
0.546909000000 0.004359886564 -0.018656683832 0.910383329906 -0.141901292269 0.910283956312 -0.141106627968 0.009268819949 -0.000096443731
0.552908000000 -0.015576008594 -0.014725161065 0.830803344433 -0.382831115394 0.831662750036 -0.382883612869 -0.010602080882 -0.001869768055
0.558907000000 -0.028484575062 -0.000868775619 0.696317395055 -0.595484684538 0.695580977476 -0.593933229499 -0.027188799948 0.007575090631
0.564906000000 -0.030475549653 0.017100382784 0.505010964998 -0.757322963956 0.506971259140 -0.756949004246 -0.034632676724 0.024242738543
0.570905000000 -0.022113356327 0.031321384242 0.282667098808 -0.870040815620 0.284424656815 -0.868526542686 -0.032152483851 0.041536013151
0.576904000000 -0.007778499956 0.037603858659 0.036227913554 -0.910882768792 0.038144795874 -0.912836141973 -0.020780955461 0.053979684855
0.582903000000 0.006135437571 0.034699545059 -0.215568622979 -0.892847150992 -0.214491879525 -0.893158637641 -0.005604003366 0.058626762206
0.588902000000 0.015463382261 0.024520136719 -0.450993173768 -0.797335823161 -0.451874386943 -0.799282161400 0.009043023902 0.054207762244
0.594901000000 0.016759653162 0.011796603600 -0.656873922482 -0.645829369131 -0.656812021907 -0.645257614174 0.018356393016 0.044009441738
0.600900000000 0.010192175547 0.001151634630 -0.804803267666 -0.437095541607 -0.805685257001 -0.437038053699 0.019853525399 0.031073401131
0.606899000000 -0.000636580455 -0.002718277672 -0.896579394895 -0.199140029815 -0.894012021815 -0.198675852049 0.014813318154 0.021421194057
0.612898000000 -0.011223899234 0.001210686043 -0.910033050545 0.052626045120 -0.908995781203 0.052565227432 0.006151913699 0.017313222739
0.618897000000 -0.016322120287 0.009995750885 -0.864187299108 0.299029824879 -0.861432921733 0.297544182630 -0.001628041392 0.018880345432
0.624896000000 -0.015069466345 0.019476386788 -0.746620531514 0.519955629152 -0.746664623035 0.518830284191 -0.006283760352 0.024305724392
0.630895000000 -0.008830998337 0.024987109450 -0.579766627070 0.707744794993 -0.579433568434 0.704727450970 -0.006459669141 0.030094053908
0.636894000000 -0.001091833380 0.025770208461 -0.363875721156 0.835543707676 -0.364680389722 0.835258430331 -0.003524286852 0.034398910897
0.642893000000 0.004118736487 0.021760657886 -0.121129935155 0.909113908774 -0.122184253359 0.906805855352 0.000536266694 0.036407593413
0.648892000000 0.005453460188 0.016092099896 0.132346163307 0.903950471404 0.131981658936 0.903093257809 0.004618705618 0.035810600848
0.654891000000 0.002433012171 0.012216697643 0.377667138782 0.836072314294 0.375753280116 0.833386533100 0.006883305155 0.034163074200
0.660890000000 -0.002524796402 0.011959640228 0.589513658649 0.695434964472 0.588426704417 0.695184991435 0.007523848009 0.032335518058
0.666889000000 -0.005848193918 0.016679076331 0.759757183862 0.508955710915 0.756374006363 0.508442076852 0.007675349582 0.032227216511
0.672888000000 -0.004658405004 0.023238737970 0.863869216991 0.280287212101 0.863044260192 0.281526704181 0.008388651119 0.032409357334
0.678887000000 0.001873602304 0.028027855174 0.911482500265 0.035275874461 0.908863918544 0.036214964003 0.010845944009 0.032455412048
0.684886000000 0.011112018219 0.027642275740 0.881235076301 -0.214486427211 0.881118077394 -0.213286124220 0.013387449376 0.030514857969
0.690885000000 0.018953337689 0.020638498782 0.789893177107 -0.457013038949 0.791181130633 -0.448792193605 0.015141138020 0.026133260406
0.696884000000 0.021770815766 0.008678603591 0.637257084576 -0.645015809797 0.638400156561 -0.644108315572 0.013641822554 0.021564044587
0.702883000000 0.015895412818 -0.003052725782 0.438383672859 -0.798579282859 0.439884040411 -0.795139207029 0.008612306741 0.017942648745
0.708882000000 0.003314755197 -0.009284643657 0.201820739112 -0.883145437879 0.203746717036 -0.882291896088 0.001681403294 0.018160704134
0.714881000000 -0.011950614063 -0.006333601161 -0.049064425796 -0.908411642612 -0.046176367023 -0.906327619637 -0.005463855757 0.023392010705
0.720880000000 -0.023339411694 0.006328805737 -0.293122319733 -0.855885135186 -0.291476443449 -0.856298918425 -0.008822463046 0.033447706241
0.726879000000 -0.024906080620 0.025394767857 -0.516954788910 -0.746012689029 -0.515642766863 -0.744824102230 -0.005648329304 0.045170329052
0.732878000000 -0.014528502860 0.042673059270 -0.697735074363 -0.570636319849 -0.697093952248 -0.573278622347 0.004222561574 0.053934798003
0.738877000000 0.005902237627 0.051843295780 -0.830500007310 -0.359612968153 -0.827551473299 -0.361137674530 0.018753351781 0.056855506643
0.744876000000 0.029683668268 0.047340601435 -0.890920620038 -0.120086545930 -0.890745390953 -0.122280784140 0.033307594766 0.051220103703
0.750875000000 0.048066992740 0.028603358052 -0.893475338165 0.128152347853 -0.892150417682 0.125320725179 0.042856234722 0.038178287314
0.756874000000 0.052991753500 0.001809790074 -0.820514851009 0.363887846324 -0.822350899359 0.361617610095 0.043396525380 0.022517402191
0.762873000000 0.041390212733 -0.024528171679 -0.693814628493 0.576788548321 -0.695755622558 0.574083244012 0.034821105920 0.009081624779
0.768872000000 0.015961660662 -0.040205681071 -0.507867804465 0.740468392946 -0.511949756364 0.741536924417 0.019708147136 0.004248427953
0.774871000000 -0.014997795216 -0.038884700690 -0.286245496502 0.855225675111 -0.288981268033 0.856202937977 0.004469693506 0.009885623194
0.780870000000 -0.040110030931 -0.019598494162 -0.041657182810 0.896145103773 -0.042475076788 0.900324729617 -0.004139889983 0.024977929521
0.786869000000 -0.050529554425 0.011458593392 0.206265490510 0.875760100348 0.207287379973 0.877297017240 -0.001912393847 0.043774342328
0.792868000000 -0.041253086351 0.043910962215 0.433641009155 0.781195057428 0.436900580579 0.782871574299 0.012637739991 0.058751490557
0.798867000000 -0.014276723474 0.066012199803 0.631209175997 0.636664110455 0.632783121080 0.634791192171 0.034752850632 0.063698178844
0.804866000000 0.021070504259 0.068588965008 0.776355096872 0.440203316604 0.777608359663 0.438074959939 0.056829902614 0.055291052041
0.810865000000 0.052445835083 0.050687045936 0.871632838442 0.214614878872 0.869906365932 0.212572520082 0.072589398088 0.035476357646
0.816864000000 0.067993370374 0.017883046308 0.894873338662 -0.030350529460 0.894913578039 -0.030799518240 0.074883962108 0.009907642800
0.822863000000 0.062394582262 -0.018172116003 0.859602624380 -0.271921902362 0.857609207142 -0.275006418795 0.063226757614 -0.012904641969
0.828862000000 0.037180145089 -0.045206238398 0.747342283879 -0.499057153546 0.747572867193 -0.500478210447 0.040946733646 -0.025952386649
0.834861000000 0.000893638240 -0.053158034532 0.584138049050 -0.688774669525 0.581943785131 -0.689793534445 0.015725056402 -0.023833879605
0.840860000000 -0.033461489107 -0.037880279605 0.369111708748 -0.817428902617 0.366489329263 -0.820051355055 -0.003200650639 -0.006597823218
0.846859000000 -0.053112975112 -0.005587330934 0.132260444043 -0.890139433006 0.127815501374 -0.888410596923 -0.007915157530 0.017791794928
0.852858000000 -0.049821502755 0.032531238846 -0.113965491228 -0.886636278842 -0.117414085262 -0.883955437631 0.002815858715 0.040363854710
