# GHZ S RI R 50.000000000000
0.001000000000 0.023989648398 -0.001146492400 0.975289077284 -0.117238627634 0.995545353526 -0.119195130005 0.018953377165 0.001860600434
0.007998000000 -0.003411503080 -0.023814741978 0.564522552591 -0.774261744188 0.562386074394 -0.776133832927 -0.003748349266 -0.024373918407
0.014996000000 -0.020100764596 -0.014857142644 -0.162243585087 -0.929902680996 -0.166290554746 -0.929279772203 -0.021699030609 -0.017762877910
0.021994000000 -0.012854180942 -0.005553089040 -0.775145251044 -0.524240426350 -0.777110998382 -0.520770402805 -0.018443227186 -0.008567132393
0.028992000000 -0.008716748862 -0.025064199536 -0.909979572704 0.191682690725 -0.908992988639 0.194304388878 -0.017807582854 -0.022713248650
0.035990000000 -0.044950542527 -0.035419587109 -0.489824621781 0.783411105027 -0.488579445979 0.783593507222 -0.050126916313 -0.026321581880
0.042988000000 -0.073283130890 0.008410954718 0.219126420151 0.893027246282 0.219771046358 0.892417833984 -0.070463558638 0.017508483202
0.049986000000 -0.036908770631 0.054436181672 0.791493866991 0.461527163452 0.791888803157 0.461527311295 -0.030889342942 0.057009915403
0.056984000000 0.015235510674 0.037361658834 0.878846154879 -0.246781585308 0.878458259959 -0.248097106199 0.018592769092 0.035359386942
0.063982000000 0.017893769308 -0.004727510466 0.432235781743 -0.801440384243 0.430866026465 -0.801994030673 0.017907072357 -0.007620780625
0.070980000000 -0.000015331448 -0.015185520691 -0.275138724264 -0.864937517881 -0.276452987886 -0.864446504948 -0.002453492296 -0.018030065783
0.077978000000 0.001188166604 -0.025260523681 -0.810916817883 -0.400768641168 -0.811398251229 -0.399594018522 -0.005379290029 -0.026359359665
0.084976000000 -0.024640310654 -0.056839443109 -0.847512277032 0.303680252207 -0.847002931788 0.304537771325 -0.032803061060 -0.051433682682
0.091974000000 -0.091200773610 -0.040137495580 -0.367767286725 0.815038782793 -0.367078815926 0.815117460375 -0.093578188044 -0.027731427381
0.098972000000 -0.107257832290 0.044171596756 0.326205670261 0.827191767439 0.326225331392 0.827762328252 -0.099042710946 0.056399199726
0.105970000000 -0.036196586315 0.097092362230 0.818675911329 0.345849455789 0.819626459393 0.344709730494 -0.019418907651 0.100770279304
0.112968000000 0.032708089185 0.063791468933 0.818266479734 -0.345375997928 0.817845635815 -0.346815246701 0.049865340194 0.052572017472
0.119966000000 0.039375481869 0.013476944780 0.319280395409 -0.828684722665 0.318769906591 -0.828965528567 0.044612479028 -0.011819112938
0.126964000000 0.033476167679 -0.011087134131 -0.375009055208 -0.803243175465 -0.375124585293 -0.802805076800 0.015602833673 -0.037503113310
0.133962000000 0.025491200466 -0.051968563650 -0.835227640876 -0.286124638178 -0.835115315763 -0.286012305238 -0.011029054569 -0.058342024147
0.140960000000 -0.039028100086 -0.088332691459 -0.780243947836 0.400070506056 -0.780468851861 0.399769495861 -0.070530341364 -0.064768611960
0.147958000000 -0.123332584408 -0.037952813913 -0.255101360855 0.831285345152 -0.255952370996 0.831050495834 -0.128113746692 -0.000719806854
0.154956000000 -0.118548779320 0.069598299355 0.411736468469 0.761490181741 0.411881533692 0.762017055713 -0.097809328898 0.096047525957
0.161954000000 -0.027713426333 0.115379384502 0.833747295826 0.240212615175 0.834277978259 0.239986922321 0.001823006604 0.118410842581
0.168952000000 0.043238475137 0.073807705395 0.754840247566 -0.432892070146 0.754310476029 -0.433567191210 0.064575421738 0.055723457116
0.175950000000 0.056697757424 0.019325270284 0.211917631058 -0.843362074953 0.211918595409 -0.843979892944 0.058582785880 -0.010437256549
0.182948000000 0.052792249025 -0.024526352778 -0.459739291096 -0.736001470212 -0.459900779042 -0.735941163040 0.029301080632 -0.049727004853
0.189946000000 0.020142553663 -0.078697017973 -0.843843287462 -0.178135374902 -0.844044068939 -0.178347789244 -0.018091334446 -0.078851398874
0.196944000000 -0.067865641450 -0.093645567056 -0.709877805438 0.477206717124 -0.709815325183 0.477383674063 -0.094341258054 -0.065543993325
0.203942000000 -0.140284736385 -0.015448996427 -0.155843719623 0.835266075939 -0.156518244258 0.835592616442 -0.138228250861 0.019625178790
0.210940000000 -0.111384985590 0.091169711092 0.485327886235 0.697425758354 0.485736551670 0.697737276535 -0.088730708728 0.110476968362
0.217938000000 -0.014583821465 0.122480448170 0.841141945869 0.139696512491 0.841917205397 0.139933982026 0.012163689035 0.119713598905
0.224936000000 0.051730383531 0.075504716331 0.686226806118 -0.508846115367 0.686944817844 -0.509484164959 0.070564473777 0.051885017725
0.231934000000 0.065314514458 0.019911816359 0.108229840819 -0.846051108177 0.108696120756 -0.847138655188 0.060785958967 -0.020772395398
0.238932000000 0.060558337123 -0.029630704557 -0.532422520519 -0.662677250061 -0.532716450257 -0.662953575220 0.016301427519 -0.064254480467
0.245930000000 0.021301490341 -0.085713697272 -0.841219431209 -0.078617497146 -0.840688192488 -0.078061481943 -0.047939761284 -0.076822942231
0.252928000000 -0.070877797816 -0.097557381297 -0.639895425053 0.543952085459 -0.638713716202 0.543662274549 -0.116885319112 -0.037846035111
0.259926000000 -0.146818276072 -0.015795765014 -0.058465968831 0.834703625602 -0.059180657505 0.833719792433 -0.138123011925 0.054162584391
0.266924000000 -0.117479050930 0.100321406535 0.555365938265 0.624650628831 0.553756303410 0.625846055856 -0.072823469036 0.135631186641
0.273922000000 -0.008771671983 0.136914481723 0.835221804574 0.037166309428 0.836016855897 0.039885663894 0.032580595421 0.132110401291
0.280920000000 0.069635268377 0.079344518207 0.608538085133 -0.574112230939 0.610471707911 -0.573325443631 0.088720456982 0.053357410731
0.287918000000 0.076524655538 0.006496335393 0.011687454173 -0.836146892634 0.013043029162 -0.836047629530 0.068499573191 -0.026242184035
0.294916000000 0.051899302533 -0.040325875461 -0.591112058446 -0.589852668552 -0.589150217624 -0.590069174993 0.012157851556 -0.061829247036
0.301914000000 0.010819003073 -0.078060955850 -0.832984820862 0.014237370005 -0.831275891465 0.011867666492 -0.047847399241 -0.060251578731
0.308912000000 -0.067761598721 -0.084152738065 -0.567783446186 0.605920059059 -0.568850193641 0.602128445433 -0.103723942523 -0.018934485375
0.315910000000 -0.135002105721 -0.008232413959 0.039509855826 0.825964641363 0.034244301382 0.824809965814 -0.114745470405 0.066672454448
0.322908000000 -0.104481087509 0.099234761604 0.616433971679 0.545305241615 0.613258651693 0.549631543763 -0.043831456867 0.135627588704
0.329906000000 -0.001648026563 0.129747908152 0.818226613646 -0.058356700331 0.819955660404 -0.054953746362 0.056748547724 0.116149241397
0.336904000000 0.068678520675 0.072103646550 0.531439447243 -0.626375779245 0.533172569062 -0.625096599918 0.094655466473 0.027821197483
0.343902000000 0.069524167638 0.007150905932 -0.078538601823 -0.819630149599 -0.075531462837 -0.818623887918 0.054815442327 -0.039946446011
0.350900000000 0.050375956022 -0.032471836407 -0.644358104900 -0.513240670579 -0.640942659697 -0.514694328700 0.000373829106 -0.055854895164
0.357898000000 0.012121471543 -0.072320774622 -0.815465993208 0.107133753686 -0.814131095431 0.102108738740 -0.047255123828 -0.049493491573
0.364896000000 -0.069937750983 -0.073571862043 -0.486805971625 0.659068909646 -0.491461104619 0.654171719862 -0.097102671697 -0.011412884186
0.371894000000 -0.125904711460 0.010865118199 0.132489418433 0.801456779039 0.126542273258 0.803495083995 -0.103155547212 0.070425582241
0.378892000000 -0.078736688064 0.106114645824 0.660887740416 0.464590376153 0.659617872721 0.469993475053 -0.030028512426 0.129235329101
0.385890000000 0.018472445861 0.110790732219 0.795723166483 -0.143995267322 0.797399710397 -0.140610549898 0.058372691594 0.096700922842
0.392888000000 0.057608142005 0.048858474543 0.455234969945 -0.673223191193 0.457878597286 -0.670466569220 0.072299329811 0.016717335335
0.399886000000 0.043912392733 0.011039759846 -0.168085511878 -0.796852639637 -0.163276572133 -0.796607973140 0.029806832375 -0.022683535903
0.406884000000 0.037789170256 -0.007785183327 -0.689756006420 -0.432578589240 -0.685718737918 -0.436706202357 -0.003024535362 -0.022838450451
0.413882000000 0.016346668593 -0.043919423728 -0.788523902925 0.195073649927 -0.789486181422 0.188650554391 -0.029239385587 -0.021574859175
0.420880000000 -0.048763701689 -0.046536338922 -0.405340580278 0.699132136917 -0.411980460778 0.695594941289 -0.065086269758 0.002541833771
0.427878000000 -0.085202183887 0.021169512893 0.215571670252 0.773552119008 0.209164188397 0.776743109207 -0.066221217766 0.060825715048
0.434876000000 -0.039475054356 0.081169282001 0.701232115492 0.388233495486 0.699520112804 0.394089618423 -0.010220981711 0.092803063563
0.441874000000 0.020900264998 0.066481813692 0.769988880469 -0.230867075160 0.771746900016 -0.225327450407 0.040277082762 0.059501405575
0.448872000000 0.027326133019 0.028705414724 0.370206538416 -0.714453508121 0.376366961610 -0.711752108606 0.035337994762 0.011411304753
0.455870000000 0.020193241226 0.022784564708 -0.255155608549 -0.762658725658 -0.248458804922 -0.765101893710 0.007151513074 -0.002601097703
0.462868000000 0.035445861430 0.008899592094 -0.723866226431 -0.347899331774 -0.721194780229 -0.353722443973 -0.008743040744 -0.001408064474
0.469866000000 0.022200265207 -0.033934843056 -0.751094167502 0.277508077313 -0.753987015500 0.271199779421 -0.028273968064 -0.001330652785
0.476864000000 -0.037428664561 -0.039275787157 -0.323311340108 0.728688405875 -0.329384092252 0.727192556469 -0.051627529532 0.022321645629
0.483862000000 -0.066030596479 0.017680053245 0.294251918743 0.738624070246 0.289197913010 0.741653209778 -0.042087556340 0.063181465581
0.490860000000 -0.026101480536 0.059516995616 0.734598376896 0.305595813818 0.732185644056 0.311423428726 -0.001005168666 0.074238137804
0.497858000000 0.013427042111 0.038300042334 0.731411549491 -0.313961980149 0.733864419967 -0.308845256027 0.021894947095 0.047770110273
0.504856000000 0.001988418245 0.010968049367 0.283283637838 -0.743051105457 0.289496724101 -0.741205620409 0.010889880955 0.028327122114
0.511854000000 -0.013584086576 0.023794483721 -0.335335962317 -0.720177295999 -0.329126035377 -0.722508721982 0.003372006513 0.034611783301
0.518852000000 0.006263752603 0.036019004995 -0.748813670240 -0.261452800414 -0.746444499509 -0.267807466875 0.015269084603 0.034758681822
0.525850000000 0.022200256968 0.012096260592 -0.708604429426 0.354796876172 -0.711080118518 0.348661040964 0.016850062373 0.016587365627
0.532848000000 0.001520508759 -0.008575282594 -0.238586959328 0.754098602205 -0.245237435053 0.751431281945 -0.001741993556 0.008689793773
0.539846000000 -0.019004803308 0.005706949348 0.373271647768 0.695996993215 0.366043604345 0.698645622477 -0.013342240454 0.022582601044
0.546844000000 -0.008884911295 0.021188079945 0.758379079794 0.216773004596 0.755132350979 0.224940772406 -0.005155545533 0.033548354802
0.553842000000 -0.000121748139 0.009746774182 0.682827284000 -0.392242859055 0.686443907757 -0.384454496198 0.001034802095 0.028406189823
0.560840000000 -0.017864175697 0.005201066085 0.194059943823 -0.761732018233 0.202558479209 -0.758276147155 -0.005566699040 0.028676273573
0.567838000000 -0.024880094354 0.031024178188 -0.411038190962 -0.668389396113 -0.401477562450 -0.673039682236 -0.001406462562 0.042556621999
0.574836000000 0.005676948408 0.046710968913 -0.764273905236 -0.170185197921 -0.761666612912 -0.181061649180 0.020919290810 0.041789036455
0.581834000000 0.030707960913 0.020880558564 -0.653524846178 0.428269050253 -0.658922229651 0.419441806207 0.029655776477 0.015461043607
0.588832000000 0.015410026319 -0.007222562084 -0.149053717896 0.766817066411 -0.158941010101 0.763106500322 0.007902429495 -0.003386082473
0.595830000000 -0.005834202193 -0.000987290524 0.445929769391 0.640813685041 0.434760102938 0.645956771969 -0.014406493457 0.008917320416
0.602828000000 -0.000526266794 0.007242436038 0.768859626991 0.125707761421 0.765303576948 0.137546313740 -0.012363384176 0.024565257913
0.609826000000 -0.004656659861 -0.007490653326 0.625816516459 -0.461935332750 0.631169062131 -0.452004664843 -0.010613780655 0.026067416056
0.616824000000 -0.037846810767 0.000190710375 0.103862057235 -0.769060460837 0.115259905950 -0.766522893222 -0.018869039782 0.038863202180
0.623822000000 -0.042185975109 0.051454255844 -0.477901832997 -0.607270648472 -0.468786295645 -0.615554548819 -0.002637381374 0.067369925142
0.630820000000 0.011056000349 0.080512747087 -0.764438674047 -0.081683835652 -0.764715606470 -0.092239127858 0.044758257370 0.065380490492
0.637818000000 0.060617093687 0.046122271725 -0.593986784627 0.487664846492 -0.598805647291 0.480864524281 0.068888937748 0.014386016619
0.644816000000 0.056213952635 -0.001520970104 -0.066837360766 0.767488466416 -0.075543204360 0.763803826102 0.035026459743 -0.031365976822
0.651814000000 0.035768097659 -0.016645682726 0.505827343767 0.582857818695 0.494838185003 0.587630631745 -0.013807377107 -0.027320501427
0.658812000000 0.024837793746 -0.031988791001 0.770227412603 0.041255922128 0.766081103055 0.053908861979 -0.037241556375 0.001780108107
0.665810000000 -0.014139717671 -0.049444127366 0.562559930462 -0.523725355989 0.572036961466 -0.511749778457 -0.042650951542 0.032980377356
0.672808000000 -0.069015393397 -0.013418820885 0.015132032187 -0.763362628520 0.029951573402 -0.765407779549 -0.031496122266 0.071052958833
0.679806000000 -0.062973756066 0.065936239731 -0.531473504560 -0.541055998258 -0.526480837819 -0.552139299921 0.016362970736 0.097924511240
0.686804000000 0.012338393111 0.099970275782 -0.756983985959 -0.002255396452 -0.758828670009 -0.010166969365 0.078029080750 0.069690318752
0.693802000000 0.071448861882 0.057121221849 -0.534768032022 0.539844147716 -0.539375138305 0.532593196622 0.088605635773 -0.001208801328
0.700800000000 0.071805428717 0.004489083120 0.015048363905 0.763486720388 0.003450801997 0.760445285180 0.039525898734 -0.046992183627
0.707798000000 0.054883408890 -0.024347155042 0.560119613454 0.519654879094 0.548779442515 0.528247964191 -0.017217019851 -0.039265349314
0.714796000000 0.029555601487 -0.053878211837 0.760441389536 -0.042936375417 0.761290522512 -0.027260202551 -0.049108660497 -0.002807163700
0.721794000000 -0.030976171297 -0.064148178757 0.494973635014 -0.572529710967 0.508786892333 -0.565061810766 -0.056448424797 0.044426267043
0.728792000000 -0.088546425450 -0.007986737054 -0.062395022036 -0.748717534387 -0.051160055842 -0.755274353018 -0.027870542021 0.094995400835
0.735790000000 -0.070794006158 0.080283059226 -0.575224108342 -0.479753141835 -0.572798328849 -0.488557813349 0.041908092497 0.110625859163
0.742788000000 0.010602464820 0.112623277785 -0.747611857775 0.072977103124 -0.747742166974 0.065390039531 0.103135309495 0.058674685824
0.749786000000 0.074779654657 0.074043220662 -0.471715775707 0.590157515809 -0.477852072772 0.580951285654 0.098956279936 -0.023060333252
0.756784000000 0.090633828401 0.016450869249 0.097658689671 0.750159092795 0.082992653009 0.749962445389 0.035335335783 -0.068973418225
0.763782000000 0.076488407561 -0.034801325336 0.605835164604 0.448606379308 0.596697266484 0.462115628956 -0.034179237906 -0.054201826907
0.770780000000 0.030336188239 -0.076784796846 0.739976123634 -0.122039927017 0.744968426072 -0.107136001211 -0.071761639825 -0.002062260330
0.777778000000 -0.047713870553 -0.073273731466 0.428099311966 -0.612449925601 0.441398533408 -0.606492999778 -0.068476837232 0.061165749161
0.784776000000 -0.099031737087 0.000319187748 -0.136769700875 -0.732448110373 -0.124808953387 -0.736443611513 -0.020478809094 0.109393638061
0.791774000000 -0.067159101282 0.087072206294 -0.619545283511 -0.415565347039 -0.612338431053 -0.425873369854 0.053384150388 0.108452250786
0.798772000000 0.015912851384 0.110533889994 -0.731106223797 0.155446927014 -0.733337486545 0.140039653611 0.104214087041 0.048800137566
0.805770000000 0.077185852546 0.068449259919 -0.397094289762 0.633398378104 -0.410863828155 0.624665419285 0.090984924430 -0.029656881037
0.812768000000 0.091723360264 0.009511451365 0.177679633184 0.724299271479 0.162563759064 0.729012437118 0.024693923984 -0.068770367536
0.819766000000 0.074313624274 -0.043266038251 0.641385473521 0.376934536757 0.635041986437 0.390088743854 -0.044720790320 -0.046951969517
0.826764000000 0.024990161025 -0.082117503652 0.716868699733 -0.195357458107 0.719695515531 -0.182314514609 -0.075660485619 0.014388246225
0.833762000000 -0.050487237901 -0.075559157096 0.359834595687 -0.650187825384 0.371539335594 -0.639865446281 -0.055928714206 0.078662902535
0.840760000000 -0.100431771189 -0.005167181443 -0.216139090366 -0.711049857746 -0.197786276137 -0.713145531409 0.003878805075 0.113353121962
0.847758000000 -0.072545888528 0.081599006093 -0.659209612360 -0.338736596970 -0.649333754806 -0.356258777181 0.075245303270 0.094994090032
0.854756000000 0.010953611577 0.110188634056 -0.699500182711 0.234680920323 -0.708098592797 0.218319240209 0.113437585233 0.026788866740
0.861754000000 0.078748093777 0.068411144628 -0.321004331353 0.661754007655 -0.335169204553 0.658739572991 0.086942482439 -0.049274839643
0.868752000000 0.092828114305 0.001202656462 0.247285988393 0.692734185750 0.235628143767 0.697453328554 0.014836725354 -0.077298548728
0.875750000000 0.064859828334 -0.050458465861 0.671369792414 0.309279030840 0.662257203644 0.319251456745 -0.047362634781 -0.044924728737
0.882748000000 0.012957328090 -0.075219203526 0.690170240664 -0.267504533942 0.691949458196 -0.250020040519 -0.064781063807 0.012338939792
0.889746000000 -0.049737428970 -0.057575441712 0.286732635097 -0.681975318363 0.304413926925 -0.670084527656 -0.044211001449 0.061337834106
0.896744000000 -0.080570526865 0.010316807150 -0.290702291717 -0.677287501858 -0.269661195108 -0.686546611947 0.001517153933 0.087412456205
0.903742000000 -0.042881252454 0.079132476463 -0.683404498030 -0.261496031568 -0.680341294047 -0.282724643762 0.059328335445 0.076577976629
0.910740000000 0.031958434352 0.090610529041 -0.661856786490 0.302945121551 -0.672670667184 0.291044799348 0.095311594122 0.018990254849
0.917738000000 0.082097219098 0.047397103516 -0.249474998203 0.683803994565 -0.260253983017 0.678988572754 0.068903002891 -0.051145484056
0.924736000000 0.089762486975 -0.004496122309 0.315558415469 0.659891359074 0.299561585894 0.660018151962 -0.004197491481 -0.069620779893
0.931734000000 0.076119043583 -0.049237059504 0.696216204449 0.233115035872 0.682024802508 0.248668454616 -0.060223600618 -0.025509643770
0.938732000000 0.031824315417 -0.089069444495 0.650344696762 -0.339913597478 0.655955643311 -0.314095164240 -0.063241186120 0.040291958185
0.945730000000 -0.044335309726 -0.082674923078 0.205157843741 -0.699236940519 0.234272499591 -0.691199210883 -0.022103540508 0.086179086951
0.952728000000 -0.089701160595 -0.009088207136 -0.354257704796 -0.630067212087 -0.336455037380 -0.649324065996 0.036765336564 0.093594054172
0.959726000000 -0.055057086911 0.071216579461 -0.693620620191 -0.189200957290 -0.698644923656 -0.206211278623 0.090181817085 0.058351736124
0.966724000000 0.023213618873 0.087046098368 -0.623255510969 0.360885696237 -0.629293645106 0.352375164564 0.100642790480 -0.009568038322
0.973722000000 0.070000608527 0.044996924096 -0.180030485462 0.701586596960 -0.191337793210 0.692912975396 0.054975622923 -0.060145965083
0.980720000000 0.075615663931 0.001830144739 0.381830411205 0.621081150379 0.361036862851 0.625024646044 -0.005715413155 -0.056039666059
0.987718000000 0.062514349624 -0.034912123436 0.712245745442 0.155903853733 0.702045946024 0.178709675438 -0.037921233690 -0.015190055621
0.994716000000 0.023920048661 -0.061668954072 0.604947113128 -0.401537355873 0.618956271145 -0.380162789465 -0.033206583069 0.026585471728
