# GHZ S RI R 50.000000000000
0.001000000000 0.017045611788 0.001280103686 0.990905175124 -0.171190192115 0.966822697506 -0.181103052594 0.028678882033 -0.001101088806
0.006999000000 -0.041544453948 -0.055275440860 0.351681351882 -0.934701847092 0.332695615621 -0.914604168058 -0.038842552584 -0.060119404657
0.012998000000 -0.023122639440 -0.006141220232 -0.549903199449 -0.765033110657 -0.550166087468 -0.764510693322 -0.027187107771 -0.009193673536
0.018997000000 -0.001660414297 -0.010621646543 -0.938742917150 0.050256039458 -0.936770947596 0.047431366349 -0.007893497870 -0.008762916236
0.024996000000 -0.020081864942 -0.025920499693 -0.461162003298 0.801181079302 -0.460351066743 0.800240170187 -0.021466578452 -0.021459401080
0.030995000000 -0.027264369002 -0.007527148397 0.418316127944 0.820014402466 0.415910179733 0.820145110674 -0.027101610481 -0.006511865711
0.036994000000 -0.018715713619 -0.024464779254 0.905707586269 0.092445359736 0.905523458582 0.093472503172 -0.020379248571 -0.023724786302
0.042993000000 -0.071212525441 -0.026427966329 0.568236210520 -0.711430523268 0.567304120513 -0.708766498166 -0.071680302179 -0.025085129481
0.048992000000 -0.077245337035 0.058549236047 -0.280411372024 -0.857695922549 -0.279504037220 -0.857268560370 -0.078638302008 0.057731848604
0.054991000000 0.022192065426 0.077208092409 -0.872639745000 -0.230666429719 -0.869422050191 -0.231095969595 0.017678979752 0.078335381004
0.060990000000 0.052556676786 -0.011926569873 -0.658808719668 0.599691912609 -0.659342671877 0.597864279086 0.050083700437 -0.007501146329
0.066989000000 -0.008882140191 -0.040803975967 0.140568931372 0.879955573432 0.138512651291 0.877560087998 -0.008507286686 -0.038151176346
0.072988000000 -0.019338949375 -0.011077522218 0.809441109602 0.360255747404 0.808529110067 0.360938882440 -0.020742182417 -0.009419191540
0.078987000000 -0.007745981885 -0.023147586892 0.741665844707 -0.486082984422 0.740177463688 -0.483471288886 -0.009009334528 -0.017921186626
0.084986000000 -0.026599992832 -0.036718282488 -0.002721114898 -0.876282855111 -0.001207375877 -0.876011793262 -0.022298980783 -0.031249094875
0.090985000000 -0.050128533967 -0.041885894824 -0.735687346229 -0.478409385458 -0.733525646722 -0.478178585832 -0.044438040092 -0.042543311783
0.096984000000 -0.107231851309 -0.021955816605 -0.797246788686 0.356317999570 -0.796776453511 0.355110974274 -0.106299257369 -0.023217408562
0.102983000000 -0.114535635845 0.086602218619 -0.129238616603 0.861797403315 -0.131267846741 0.858557936332 -0.110546215109 0.090070094726
0.108982000000 0.016677846977 0.137643992539 0.638828142902 0.568921427443 0.637897974853 0.570318871549 0.027920780185 0.133662616058
0.114981000000 0.102217501790 0.019266623558 0.827319190967 -0.214948604743 0.825531767328 -0.214031682691 0.104359078899 0.003885511244
0.120980000000 0.018744393334 -0.065377539485 0.277182920941 -0.810459603850 0.277384591779 -0.808624915536 0.007393267709 -0.073091789936
0.126979000000 -0.031428102011 -0.015504762263 -0.537091594132 -0.676441778625 -0.533046682664 -0.675305805693 -0.038986787427 -0.012315925968
0.132978000000 0.008328262620 -0.009631259401 -0.850827585828 0.084663161988 -0.850406174411 0.082878449117 0.006761031863 -0.006692011865
0.138977000000 -0.007107562617 -0.064099634565 -0.393793625892 0.758127315624 -0.394413891744 0.755337350656 -0.007256319861 -0.061443877268
0.144976000000 -0.078889780991 -0.071405197067 0.419365768038 0.739684265100 0.418414724144 0.739771458860 -0.075132434039 -0.070657657466
0.150975000000 -0.144603530031 -0.008265944966 0.849396920711 0.042329528055 0.846224747631 0.042845110905 -0.143141247658 -0.011933960046
0.156974000000 -0.131395775823 0.115564003671 0.481905886265 -0.672781411618 0.482755822074 -0.670639491148 -0.131308376381 0.115541875782
0.162973000000 0.016567989033 0.176254665930 -0.281390626791 -0.765299285798 -0.278631621676 -0.764473556501 0.023813743387 0.173964974406
0.168972000000 0.133068846959 0.046735549238 -0.794357714420 -0.203552839193 -0.793793114978 -0.203719855447 0.134873335338 0.033791461645
0.174971000000 0.046978375146 -0.076877139244 -0.617608547032 0.569746747180 -0.616052682737 0.566841372284 0.037689744730 -0.083411005437
0.180970000000 -0.038539135763 -0.021157025893 0.150267662129 0.822602077857 0.148844936006 0.822261766067 -0.040925932607 -0.019456994921
0.186969000000 0.021755007591 0.011059183356 0.770429267108 0.320391062831 0.767743240753 0.320264403775 0.022672371685 0.005971597153
0.192968000000 0.026746228554 -0.080662675165 0.685446737675 -0.469736549278 0.685377947953 -0.468298094544 0.021870112651 -0.083375353851
0.198967000000 -0.093687509585 -0.106317896676 -0.028453373064 -0.832421707574 -0.027942080325 -0.829825700908 -0.091664119023 -0.105349165226
0.204966000000 -0.171974540507 0.003247902173 -0.702150201654 -0.412303155729 -0.699657540698 -0.412424277455 -0.168623533056 -0.004120985658
0.210965000000 -0.126147040776 0.130419661754 -0.714284150009 0.347537520026 -0.712994954673 0.343597939069 -0.127812516796 0.126416601089
0.216964000000 0.012896217814 0.171602931282 -0.124089005814 0.775684604875 -0.125678574367 0.775530403738 0.024054422588 0.165789654830
0.222963000000 0.116332839912 0.068358730017 0.591182145104 0.554690670158 0.587886428253 0.552424003800 0.121400918442 0.037445619811
0.228962000000 0.066842266339 -0.047654535658 0.794290215705 -0.207300251992 0.792150213808 -0.203191306495 0.039221480572 -0.072929619387
0.234961000000 -0.017247040356 -0.023566370336 0.249802421257 -0.778882517155 0.252547997989 -0.775500645651 -0.040312287890 -0.018938355368
0.240960000000 0.026590373409 0.018548264112 -0.511520391666 -0.629740636014 -0.509399395714 -0.630351980565 0.023020468492 0.012463253414
0.246959000000 0.058774885079 -0.073770604050 -0.811593840608 0.093231815427 -0.808419346423 0.088427632545 0.033853789720 -0.090198548817
0.252958000000 -0.073719992413 -0.139708876539 -0.348284328268 0.722581579651 -0.351912374247 0.720693826724 -0.105911509185 -0.127009864334
0.258957000000 -0.194912090651 -0.014349503700 0.405541361357 0.670336761438 0.401973942773 0.670614468626 -0.200657535013 0.004919804581
0.264956000000 -0.130981178499 0.149663111304 0.762933265579 0.044931075339 0.762386573859 0.048264253527 -0.133881708864 0.151055531263
0.270955000000 0.034406104409 0.165921472267 0.480375532466 -0.608846182554 0.481673504822 -0.606658892208 0.020639991915 0.172013614689
0.276954000000 0.107414686531 0.047587903671 -0.250083661203 -0.752352662801 -0.248308491600 -0.753456342690 0.103439837289 0.062131715405
0.282953000000 0.051875139638 -0.039578110256 -0.780586379885 -0.192836491192 -0.778085165223 -0.193664795356 0.057532209800 -0.032181210148
0.288952000000 -0.012451134030 -0.018559924878 -0.576754091117 0.547906987003 -0.577188844951 0.545755192304 -0.004313065280 -0.020240213508
0.294951000000 0.017548447620 0.016994759764 0.146221123479 0.784649494327 0.142669558853 0.782177431306 0.019877913375 0.000336467936
0.300950000000 0.054931704843 -0.053010088620 0.734292504035 0.296619116367 0.732317492442 0.299491148662 0.032396720461 -0.070154679178
0.306949000000 -0.051298322445 -0.131036805143 0.638866519451 -0.452266603207 0.638894388399 -0.449257861977 -0.080783724246 -0.120000258640
0.312948000000 -0.188522279928 -0.028088170749 -0.023980872577 -0.762746834233 -0.021095649941 -0.762597234024 -0.193923431176 -0.006468148167
0.318947000000 -0.135945767644 0.151782942901 -0.640970127449 -0.408584368017 -0.638314653830 -0.409394621947 -0.132269350948 0.157928369079
0.324946000000 0.039885321663 0.168789258414 -0.701396411767 0.303849171046 -0.701686641389 0.301668321078 0.036616786194 0.170652095087
0.330945000000 0.105505663396 0.044065062579 -0.132899460697 0.767591881536 -0.134229974695 0.765078620587 0.103935213355 0.049194795858
0.336944000000 0.048372294597 -0.026564711559 0.574877628057 0.526279724312 0.572361468510 0.527884602321 0.050269956150 -0.024443945263
0.342943000000 0.006106296066 -0.012253033627 0.755831585257 -0.198746039300 0.754057367411 -0.195738721736 0.011397399980 -0.015706927630
0.348942000000 0.019877495720 0.004551318638 0.241335234492 -0.736759481973 0.243753877395 -0.735792517749 0.020121522573 -0.015830924482
0.354941000000 0.045321923559 -0.037489670731 -0.486891305218 -0.602346571904 -0.483482044803 -0.602116943141 0.013653830589 -0.060218591250
0.360940000000 -0.019697782133 -0.110606216884 -0.760531009739 0.078089831712 -0.759161867701 0.075353015426 -0.066624985087 -0.093785147616
0.366939000000 -0.154033960505 -0.054892840934 -0.351935268334 0.675916593856 -0.353223249697 0.671752789987 -0.166476176850 -0.010476125812
0.372938000000 -0.139761233308 0.116864032105 0.366333000025 0.659033832501 0.362761551866 0.660570834894 -0.120525929439 0.141242648165
0.378937000000 0.024135027658 0.152563060656 0.754565769603 0.060163813051 0.752578953207 0.062639122353 0.038277459447 0.152661196013
0.384936000000 0.083803599938 0.032674080556 0.466088605791 -0.596338506504 0.468589634136 -0.593973621261 0.085760529045 0.031214516572
0.390935000000 0.017045990798 -0.011419183336 -0.246897949098 -0.723385588602 -0.243635296480 -0.722808642804 0.021395993780 -0.008467634888
0.396934000000 0.008663590725 0.021431519991 -0.737811223474 -0.183867202370 -0.737468877419 -0.185786581482 0.021405565618 0.014764874428
0.402933000000 0.036986390596 0.006956412553 -0.556858209311 0.518094597354 -0.556468038131 0.515764636189 0.038305686562 -0.022004558675
0.408932000000 0.034153602992 -0.031348493592 0.127373103425 0.745438047167 0.124814182456 0.743311004142 -0.001117023279 -0.057441928637
0.414931000000 -0.004499169633 -0.072947420320 0.698476094900 0.300630320328 0.692029582201 0.302871897919 -0.053191188389 -0.057220365028
0.420930000000 -0.099650262417 -0.056082388777 0.624834638526 -0.419746212725 0.627829386716 -0.414566325595 -0.113960629568 -0.012716280097
0.426929000000 -0.122128444525 0.071247499466 -0.010288271851 -0.747510103573 -0.005613672382 -0.746665326401 -0.103382695782 0.097687971293
0.432928000000 0.002807608774 0.130348057646 -0.618718199929 -0.401020677612 -0.617416864140 -0.404359691130 0.023253005579 0.128509347314
0.438927000000 0.072449755460 0.033895968358 -0.684249313967 0.292595403562 -0.683586056930 0.289852269559 0.076516977262 0.019322853230
0.444926000000 0.012017983747 -0.013819758303 -0.128730029548 0.735667216124 -0.131955766122 0.733681166535 0.002705236138 -0.022265532561
0.450925000000 0.000288299472 0.021993822835 0.549799596170 0.509182274182 0.545622880852 0.509986804039 -0.002892181142 0.018932920409
0.456924000000 0.025652746225 0.008363446531 0.722533368280 -0.179576764836 0.721550257734 -0.177084707957 0.021581429589 -0.013532033883
0.462923000000 0.012258300652 -0.011189820450 0.245006415914 -0.708293866654 0.247136751276 -0.700963527432 -0.028296972335 -0.036732629484
0.468922000000 0.007566166839 -0.021249653817 -0.458769151045 -0.586436147566 -0.450452825326 -0.589820156230 -0.052131879768 -0.000542853172
0.474921000000 -0.034329184832 -0.043091713759 -0.740432407104 0.066994400670 -0.741512779655 0.059215800207 -0.053760237070 0.011790031379
0.480920000000 -0.087921938856 0.020881139707 -0.343138391055 0.645209816711 -0.347291967770 0.645414309584 -0.067888641833 0.054858451263
0.486919000000 -0.020729009001 0.096178112064 0.340840933537 0.643908591876 0.340551381788 0.642918416958 0.000330511398 0.097861093622
0.492918000000 0.051721385429 0.041271192848 0.728155290899 0.071298119285 0.726400653080 0.073397917948 0.055712629076 0.024162849927
0.498917000000 0.011395946271 -0.003640894623 0.458947322387 -0.578684423619 0.459454538180 -0.572543685391 -0.011888893713 -0.019723052218
0.504916000000 0.003771567720 0.031512798074 -0.232474535364 -0.692128503722 -0.225722006888 -0.694046084109 -0.027967029332 0.040610569202
0.510915000000 0.036985377831 0.013917067348 -0.709441611499 -0.188267916475 -0.706997071640 -0.193602406124 0.023424971167 0.026722435634
0.516914000000 0.013353804142 -0.007282047403 -0.540710504378 0.490950574821 -0.543977438920 0.485642819563 -0.015315145139 -0.011207675170
0.522913000000 0.022667099524 0.013867213168 0.115403765734 0.718904188744 0.106312192657 0.721395844443 -0.037140998869 0.044880513992
0.528912000000 0.046280372617 -0.032039914557 0.658648009492 0.299651473477 0.663841034138 0.307898932694 0.024997552856 0.052763725742
0.534911000000 -0.022454382174 -0.065496847702 0.615625697139 -0.390257749636 0.617637471472 -0.392784907326 0.023625917671 -0.001098579127
0.540910000000 -0.057985023580 0.004418067991 0.010056602246 -0.724410133775 0.009673537658 -0.723046655202 -0.009186701024 0.009599647900
0.546909000000 -0.002914014709 0.026428135936 -0.604065655266 -0.406389651547 -0.599489897281 -0.407817044533 0.011984994557 0.017117755808
0.552908000000 -0.002709664376 -0.014710299476 -0.665732455780 0.283070102437 -0.666642115562 0.279217161198 0.001509633670 -0.013162180002
0.558907000000 -0.036124431503 -0.000889246679 -0.127297187321 0.712581592074 -0.130452054035 0.709489312817 -0.030019111036 0.000799736821
0.564906000000 -0.027291099693 0.025101614172 0.523636636704 0.491332334290 0.519588225172 0.494399511812 -0.026193553447 0.020104162567
0.570905000000 -0.017998779699 0.037798544917 0.695198213481 -0.167993887179 0.695188847770 -0.161470417013 -0.033219833478 0.031923737539
0.576904000000 0.019247244850 0.054712833089 0.245093004669 -0.665947366610 0.251689200694 -0.666279512742 -0.011459180139 0.071945273899
0.582903000000 0.065094897892 0.004601567862 -0.427523887600 -0.579781394339 -0.426041438885 -0.582759362210 0.054981309605 0.054199743693
0.588902000000 0.016163335041 -0.063690860498 -0.717402119062 0.046623965133 -0.717366818519 0.045274730113 0.049346051144 -0.021643254731
0.594901000000 -0.054687453832 -0.025076724360 -0.351653702935 0.626418840403 -0.352495858486 0.620807860278 -0.011974120089 -0.024514427662
0.600900000000 -0.029220879021 0.030499932115 0.329523446196 0.632949342826 0.322905068438 0.633645125659 -0.013373388268 0.007812781303
0.606899000000 0.004394586356 0.010275934671 0.711432851278 0.068423500799 0.708425874621 0.074898270452 -0.006991453542 -0.005045316683
0.612898000000 -0.019433591817 -0.010299148168 0.442368000586 -0.552301431895 0.446607232911 -0.549470057801 -0.038735570216 -0.003400349816
0.618897000000 -0.047414188400 0.014324959417 -0.220154062769 -0.672245727657 -0.215631050300 -0.672190966732 -0.053428703627 0.035863117424
0.624896000000 -0.039370125306 0.066026361024 -0.673065116711 -0.183541107236 -0.671965448138 -0.187809067987 -0.033001636616 0.079529383443
0.630895000000 0.032868408417 0.095410726294 -0.529453627792 0.459939678027 -0.531687098885 0.455399774445 0.030652293180 0.103742105729
0.636894000000 0.108044345573 0.026984981082 0.093738240122 0.697924811666 0.089890536804 0.698036259508 0.105630329165 0.050684822550
0.642893000000 0.068145328486 -0.080208484727 0.641097275818 0.300688684111 0.636226548181 0.302638980232 0.088986692823 -0.054961465270
0.648892000000 -0.037751033993 -0.075632815362 0.595565001414 -0.368403253871 0.596992892149 -0.363295626558 -0.008686394988 -0.075051583718
0.654891000000 -0.054460980386 0.002245551937 0.018554873590 -0.703547061787 0.024124956306 -0.700779199868 -0.042663144494 -0.013196837153
0.660890000000 -0.007330341850 0.014079889127 -0.576993579251 -0.396030100236 -0.573589662274 -0.400271613501 -0.014357722930 0.002838648669
0.666889000000 -0.017368083590 -0.024420483389 -0.646617226762 0.267916717857 -0.646989346032 0.262624797576 -0.032281628514 -0.020025683868
0.672888000000 -0.077158644800 0.000348162045 -0.127492357056 0.679952436314 -0.131856760596 0.678566198588 -0.083126348695 0.018689917677
0.678887000000 -0.067019023435 0.096153153819 0.496280450820 0.478895753084 0.491446727301 0.480798466784 -0.059780611234 0.109252742837
0.684886000000 0.049753683135 0.131481671679 0.666895841706 -0.147619944916 0.667513850850 -0.143223294268 0.050102823555 0.136369501681
0.690885000000 0.139542396844 0.029578918177 0.241145339329 -0.643535439099 0.249252498442 -0.637757426952 0.135817780881 0.046799430551
0.696884000000 0.086590353493 -0.090961203782 -0.396525011950 -0.557449878120 -0.392501732194 -0.560753107037 0.102710076061 -0.067465768908
0.702883000000 -0.023963369385 -0.095756707935 -0.689732083306 0.025916260279 -0.688620668867 0.020259988448 0.000735977788 -0.093743986833
0.708882000000 -0.062482080364 -0.024183762842 -0.353280318900 0.591879131856 -0.357222603945 0.588926844197 -0.054068693994 -0.033351809066
0.714881000000 -0.027902751371 0.010404469392 0.307472729665 0.620154014620 0.301740735415 0.620536791539 -0.030356291100 0.007588566898
0.720880000000 -0.019681090770 -0.021316737513 0.681925618126 0.078472113447 0.680425546537 0.083728558969 -0.027279852594 -0.015848673749
0.726879000000 -0.089508717185 -0.013538039778 0.435453889776 -0.528738321579 0.437307833426 -0.524102243404 -0.093258514227 0.007984011080
0.732878000000 -0.102721437976 0.107819160819 -0.203147081845 -0.639136306675 -0.197319241745 -0.641471403891 -0.081958944956 0.131072721940
0.738877000000 0.044505984719 0.178936025056 -0.635690515741 -0.184357834583 -0.633521803042 -0.189657809236 0.072480832374 0.176250022348
0.744876000000 0.176364862466 0.054260806686 -0.509047873586 0.414921084680 -0.512499396344 0.412183164374 0.182078601000 0.042733859755
0.750875000000 0.113420587593 -0.102194615910 0.060034973033 0.667186100860 0.055979243799 0.666571411949 0.116983228915 -0.096339055992
0.756874000000 -0.016044676380 -0.104895515243 0.600061510878 0.317086139166 0.598126204720 0.319759601271 0.004282088933 -0.106681180346
0.762873000000 -0.052880680215 -0.030789622079 0.595449248230 -0.338446548532 0.594664504103 -0.333083813655 -0.046055854495 -0.056031153317
0.768872000000 -0.023485972915 0.002582503279 0.037417257025 -0.679379828722 0.043122980446 -0.676728284665 -0.048412711912 -0.016435178010
0.774871000000 -0.009559021734 -0.024122688386 -0.552996867683 -0.399143138778 -0.545262706941 -0.404165281714 -0.048521007580 -0.008322327745
0.780870000000 -0.074667086288 -0.035968686617 -0.624136994094 0.247536847990 -0.628630534516 0.239244865593 -0.089098305051 0.018968559023
0.786869000000 -0.120984276859 0.077111169818 -0.130392529361 0.644447047753 -0.138106677821 0.645704459548 -0.078292761285 0.130797172905
0.792868000000 0.012461664378 0.185456300569 0.445060565242 0.461329278290 0.445782076369 0.465712798597 0.079103082994 0.180193694793
0.798867000000 0.176103701920 0.077231660411 0.642278734931 -0.100715417269 0.640827858138 -0.099229064571 0.198445987812 0.034445052307
0.804866000000 0.127216441056 -0.101627288182 0.278533488271 -0.604220236736 0.280291584132 -0.600343584581 0.115312206322 -0.118586194358
0.810865000000 -0.015054617376 -0.110828115278 -0.368251198419 -0.569369206491 -0.361545072409 -0.568330314283 -0.012306377198 -0.110053462869
0.816864000000 -0.050665478799 -0.036741109410 -0.673461239736 0.004340463329 -0.670647315386 -0.001653630280 -0.046649945046 -0.049758139548
0.822863000000 -0.035336255099 -0.009860507977 -0.365297171138 0.566527123678 -0.367239744616 0.560736811158 -0.049576925961 -0.017607132606
0.828862000000 -0.031849302162 -0.011036414699 0.279545012011 0.608328105246 0.272088131391 0.610876470005 -0.046790630180 0.001378274014
0.834861000000 -0.065409483327 -0.012629710050 0.658929504429 0.090845430437 0.657384084757 0.098564675326 -0.067701845297 0.016781518368
0.840860000000 -0.107788442962 0.069862564588 0.423664606273 -0.484978840701 0.429813664435 -0.483768228096 -0.075079387801 0.105728989629
0.846859000000 -0.002822654234 0.182730374097 -0.152426802964 -0.618840929646 -0.151736263595 -0.618350052861 0.062691674288 0.174383581398
0.852858000000 0.170684870781 0.104196299060 -0.605796344496 -0.231855109779 -0.600072877658 -0.231642535471 0.199041256628 0.041329826033
