# GHZ S RI R 50.000000000000
0.001000000000 0.000282784432 -0.000873307504 1.004152191381 0.008168094306 0.999903528415 -0.001968059707 0.005766305051 0.001073787678
0.006999000000 0.051557036476 0.015248683865 1.047558904678 0.010293105098 1.019885528778 -0.002271023342 0.050278946083 0.013907603960
0.012998000000 0.001531887330 0.010214272011 0.997714046161 0.040365352168 0.997647219860 0.039370570219 0.001749447537 0.010053283453
0.018997000000 0.004284675911 0.013532149626 1.004996643865 0.055457072605 1.003492034579 0.058773627978 0.004513991749 0.013558026993
0.024996000000 0.003738806335 0.020107828344 0.995041840523 0.076214622913 0.994929629798 0.075687086498 0.003874582363 0.019989988317
0.030995000000 0.005767097242 0.024663932609 0.997440430281 0.096425759391 0.996812036486 0.098003414274 0.005944287359 0.024621704588
0.036994000000 0.007356467762 0.029293637452 0.991568552041 0.112802014406 0.991449518609 0.111942387599 0.007804126172 0.029017021337
0.042993000000 0.009622547153 0.033040539749 0.995580391919 0.126591143618 0.992972913116 0.125631020025 0.010032365166 0.032857796842
0.048992000000 0.011542150085 0.037483690851 0.986821113632 0.147975064881 0.986576642958 0.147537124666 0.012108484738 0.037156702752
0.054991000000 0.013977711097 0.041537955214 0.988140493787 0.167349316743 0.985792458945 0.166470766929 0.014581357999 0.041228329779
0.060990000000 0.016143157464 0.044879308867 0.980195341324 0.181744808898 0.979759356197 0.181817481958 0.016808424388 0.044505090538
0.066989000000 0.019151962802 0.048325872507 0.981608960123 0.199697922251 0.979053392108 0.199835844128 0.019814468685 0.048145500983
0.072988000000 0.021743825684 0.051267682583 0.972122095841 0.215765963755 0.971955287322 0.216128638189 0.022425846429 0.050906484360
0.078987000000 0.024754862590 0.054253530713 0.972257487686 0.233619578695 0.969864649041 0.233313604740 0.025685220296 0.053966169054
0.084986000000 0.027740668510 0.056801050723 0.962453481169 0.249400237445 0.962329590680 0.250091525507 0.028601632188 0.056362417470
0.090985000000 0.030996300021 0.059343607605 0.961611816542 0.267609483518 0.959172041843 0.267759081742 0.031983342485 0.058946416389
0.096984000000 0.034101783271 0.061257996229 0.951186807023 0.282686973771 0.950845105828 0.283490209763 0.035252533486 0.060777395823
0.102983000000 0.037563582481 0.063258256346 0.949508213624 0.299863549718 0.946733278961 0.300639637754 0.038904367537 0.062831745133
0.108982000000 0.040795162831 0.064740591381 0.938122350855 0.316120925693 0.937505815315 0.316993818501 0.042118582838 0.064131200664
0.114981000000 0.044394014093 0.066108489946 0.935387607004 0.334623425210 0.932783394055 0.334835748671 0.045929189207 0.065597206117
0.120980000000 0.047695774541 0.066760517623 0.923549771366 0.349177198436 0.923086946412 0.350433632051 0.049311782360 0.066167120539
0.126979000000 0.051257819797 0.067600613121 0.920448957728 0.367082585733 0.917658795755 0.368409749310 0.053089241296 0.066984379856
0.132978000000 0.054579796585 0.067666583568 0.907745187706 0.382621768483 0.907338357357 0.384007100078 0.056212149388 0.067041598729
0.138977000000 0.058127588937 0.067807161823 0.903602829373 0.401247185724 0.901015019245 0.401792395898 0.059794938321 0.067269475498
0.144976000000 0.061158587718 0.067368949905 0.890181040332 0.416304303335 0.890082610566 0.417136829868 0.062918127652 0.066683884341
0.150975000000 0.064508186036 0.066869623182 0.885493025315 0.435259947582 0.883624185596 0.434858987618 0.066301728962 0.066267895605
0.156974000000 0.067297711441 0.065846597400 0.871945074926 0.449854608859 0.872128061019 0.450619980686 0.069077841845 0.065156224586
0.162973000000 0.070228903015 0.064836232078 0.867425455483 0.468605463984 0.865060818816 0.468872459981 0.072243512215 0.064153754265
0.168972000000 0.072740230699 0.063074813149 0.853351916612 0.483621326843 0.853695365909 0.484186282521 0.074645980363 0.062408950195
0.174971000000 0.075517377200 0.061399538524 0.847665548898 0.502345057211 0.845833348507 0.502346991153 0.077515998528 0.060756235739
0.180970000000 0.077690129091 0.059062465166 0.833611488410 0.516866070655 0.833509121532 0.517775039760 0.079528273647 0.058318860437
0.186969000000 0.079952774374 0.056939261220 0.827427372215 0.535936134432 0.825930884169 0.535490935521 0.081970679614 0.056025935521
0.192968000000 0.081659710015 0.054033682692 0.813605430930 0.549575359830 0.813817873966 0.550360059969 0.083611958727 0.053288094952
0.198967000000 0.083460456226 0.051452007572 0.807005710029 0.568916982502 0.805699366007 0.567890233970 0.085605745707 0.050572664769
0.204966000000 0.084642292077 0.048377211877 0.793179765758 0.582088678120 0.793357994441 0.582598440131 0.086822568992 0.047452061746
0.210965000000 0.085776827255 0.045479373708 0.786430493197 0.600784432951 0.784882849272 0.599875465560 0.088120687342 0.044523075299
0.216964000000 0.086355871006 0.042108982832 0.772173304758 0.613276421459 0.772309002114 0.613777982708 0.088597987898 0.041207510008
0.222963000000 0.087093372010 0.039079832883 0.765051518332 0.631287315036 0.763857070668 0.630229031503 0.089341137530 0.038002580899
0.228962000000 0.087289922766 0.035597622778 0.751034272129 0.643288652180 0.751198184661 0.643516364384 0.089381017254 0.034517278589
0.234961000000 0.087439110348 0.032328117228 0.743259137552 0.661230045969 0.741951264781 0.659151969149 0.089677296648 0.031216518153
0.240960000000 0.087263064500 0.028727812262 0.728883802540 0.671834767061 0.729379544888 0.671694930572 0.089351994485 0.027657864641
0.246959000000 0.086839307535 0.025335125583 0.721736874388 0.688309226161 0.719525964175 0.687182661316 0.089087700459 0.023990848340
0.252958000000 0.086044133470 0.021595758398 0.706295740533 0.698905819039 0.706198193718 0.698872615800 0.088145976926 0.020392875869
0.258957000000 0.085289935390 0.018189839427 0.698359122466 0.714784381391 0.696424376051 0.713463526174 0.087330328627 0.016866661261
0.264956000000 0.084068475408 0.014567021785 0.682847368492 0.724647016679 0.682845758824 0.724341735714 0.085923453101 0.013313902014
0.270955000000 0.082476722645 0.010973438403 0.672893365692 0.740766376891 0.672113299011 0.737889946397 0.084626518972 0.009849478368
0.276954000000 0.080935241305 0.007321163031 0.657901145646 0.748373860942 0.657641943843 0.748107543978 0.082862805697 0.006164636474
0.282953000000 0.078903035710 0.003998704644 0.647478365444 0.764145622909 0.646110871440 0.761518360467 0.080902041984 0.002658125632
0.288952000000 0.076814987135 0.000255910553 0.632002211448 0.771032377033 0.631599330520 0.770498834717 0.078578666160 -0.001056880422
0.294951000000 0.074436404722 -0.002988762502 0.621403866524 0.785409623644 0.619296676439 0.783272341475 0.076162792546 -0.004497548366
0.300950000000 0.071844346378 -0.006582717354 0.604775740886 0.791961616590 0.604162588171 0.791877344236 0.073444043880 -0.007886423606
0.306949000000 0.068829934782 -0.009760076927 0.592355617813 0.806125995849 0.591384249938 0.803575621956 0.070525279388 -0.011010518807
0.312948000000 0.065820082183 -0.013070803781 0.575807942501 0.811694399403 0.575063985471 0.811614601685 0.067298726360 -0.014202474570
0.318947000000 0.062547650920 -0.016069848406 0.562840083060 0.825257355314 0.561822420048 0.822793889583 0.063892964165 -0.017198198468
0.324946000000 0.059320225208 -0.019059435554 0.545638602199 0.830789328581 0.545301372109 0.830134529919 0.060262920065 -0.020130937612
0.330945000000 0.055401862348 -0.021674742919 0.532027642659 0.843641480435 0.530774322526 0.841470931063 0.056439301989 -0.022743819739
0.336944000000 0.051674957867 -0.024285894615 0.514902666666 0.848267327151 0.514009347072 0.848149971968 0.052509175247 -0.025389013251
0.342943000000 0.047524124133 -0.026585271360 0.501276787279 0.860435290290 0.499770145931 0.858311430609 0.048316445926 -0.027688990894
0.348942000000 0.043378099226 -0.028832312816 0.482160004858 0.864609796649 0.482260671703 0.864469183957 0.044151468006 -0.029813591278
0.354941000000 0.039225851152 -0.030782665395 0.469089485295 0.876292230321 0.467154593454 0.874650901414 0.039605016602 -0.031656771596
0.360940000000 0.034884035889 -0.032622206025 0.449509134851 0.880011043652 0.449006997337 0.880406553255 0.035201384777 -0.033361089960
0.366939000000 0.030432017084 -0.033740380226 0.434178091581 0.892655557304 0.433150551605 0.890877907824 0.030628056707 -0.034419989500
0.372938000000 0.026083371824 -0.035019287690 0.415649506069 0.895693141386 0.415276027846 0.896115523870 0.026040480157 -0.035424268584
0.378937000000 0.021516669674 -0.035673852247 0.399985860134 0.907700556220 0.399626088491 0.905936492547 0.021363148091 -0.036066673936
0.384936000000 0.017151848247 -0.036437651480 0.382004726933 0.910447840033 0.381352810669 0.911115134022 0.016783037459 -0.036585834570
0.390935000000 0.012647102565 -0.036647894217 0.366094911040 0.921719838318 0.365202182177 0.920242111274 0.012023328377 -0.036823251392
0.396934000000 0.008448133466 -0.036892244673 0.347143029140 0.923806588016 0.347441865808 0.924414388807 0.007501487576 -0.036954125878
0.402933000000 0.004014471747 -0.036609306564 0.331511868708 0.935082621422 0.330855740040 0.933361726948 0.002977965538 -0.036454311498
0.408932000000 -0.000014593614 -0.036348560847 0.312787642085 0.937072260857 0.312541487494 0.937032805820 -0.001228764282 -0.035934938405
0.414931000000 -0.004251380135 -0.035768975711 0.297352257766 0.947270093005 0.296086351850 0.945791998923 -0.005667345433 -0.035029136418
0.420930000000 -0.008141655962 -0.035124557371 0.278382536198 0.948261750046 0.277676667464 0.948648570145 -0.009652748737 -0.034009884343
0.426929000000 -0.012118682087 -0.033832708476 0.262047631091 0.958441054241 0.260862401570 0.956410473454 -0.013879447443 -0.032693791350
0.432928000000 -0.015564401694 -0.032623809552 0.243490788156 0.958601471430 0.243065415945 0.959012595501 -0.017680626074 -0.031476531429
0.438927000000 -0.019274301397 -0.031046654504 0.226175492159 0.968176622042 0.226586822196 0.965839194222 -0.021623053573 -0.029574681264
0.444926000000 -0.022499757427 -0.029544223378 0.209128732188 0.967730501693 0.208109194567 0.967791319369 -0.024981929769 -0.027752682657
0.450925000000 -0.025747077780 -0.027582565150 0.192812622291 0.976243132384 0.191430045706 0.973835824321 -0.028480631251 -0.025646107247
0.456924000000 -0.028428968948 -0.025579159112 0.174270190469 0.974902801540 0.173843397373 0.974982302040 -0.031292808007 -0.023576231956
0.462923000000 -0.031497780460 -0.023319935261 0.158421089374 0.982742644885 0.156831486828 0.980179236838 -0.034296498509 -0.021010728014
0.468922000000 -0.033911950814 -0.021041933000 0.140122640646 0.980752772621 0.138735199593 0.980264993093 -0.036594451561 -0.018537981418
0.474921000000 -0.036307827518 -0.018480474574 0.123194486448 0.987746656235 0.121373993281 0.984410090614 -0.039176878246 -0.015606900154
0.480920000000 -0.038016233075 -0.015918348731 0.105080694183 0.984632642190 0.104324133854 0.983682374237 -0.041222192873 -0.012886043609
0.486919000000 -0.039637045221 -0.013155615614 0.083881420352 0.991083164188 0.086376428333 0.987897874078 -0.043312993043 -0.009727950672
0.492918000000 -0.040949814250 -0.010455726948 0.069883726264 0.987256110422 0.068897204030 0.986482140000 -0.044819736592 -0.006591685813
0.498917000000 -0.042247956173 -0.007458344405 0.052027291593 0.992571307615 0.052087138711 0.989317360670 -0.046330880384 -0.003245073921
0.504916000000 -0.042859938149 -0.004494546639 0.034636724914 0.987973319754 0.033527186736 0.987208285909 -0.047086106326 -0.000138812558
0.510915000000 -0.043550021134 -0.001491145948 0.016406719376 0.992491328245 0.014120432946 0.990528356119 -0.047800286635 0.003189953681
0.516914000000 -0.043509745426 0.001581558717 -0.001489831658 0.987325754473 -0.003019520502 0.986663052917 -0.047883575801 0.006271149904
0.522913000000 -0.043567777440 0.004740983941 -0.018703699800 0.991073473576 -0.020056870548 0.988779537970 -0.047889759963 0.009668080324
0.528912000000 -0.042793266230 0.007638127202 -0.037875759060 0.985220757681 -0.039497357650 0.985098689736 -0.047158379499 0.012760257692
0.534911000000 -0.042298268339 0.010567270002 -0.055430674904 0.988760920684 -0.057557388956 0.986494379344 -0.046812381239 0.016209066323
0.540910000000 -0.040961147960 0.013439606704 -0.073689411945 0.982521493887 -0.075505863148 0.982023502176 -0.045703530547 0.019417786981
0.546909000000 -0.039700923563 0.016374152147 -0.091600790554 0.984634965698 -0.094190983708 0.982807946419 -0.044480823069 0.022628650491
0.552908000000 -0.037717129712 0.018952568594 -0.110113298187 0.978114874638 -0.112848146438 0.978241007144 -0.042683627118 0.025450309929
0.558907000000 -0.035941843236 0.021643327794 -0.129545246239 0.979997496148 -0.130931547892 0.978429527860 -0.040949177723 0.028329315064
0.564906000000 -0.033512002550 0.024162854824 -0.146807684090 0.972259118237 -0.149265519808 0.973254128382 -0.038521963103 0.030940046234
0.570905000000 -0.031028214392 0.026426011941 -0.166131104412 0.974069780500 -0.167872867943 0.972467771825 -0.036234607403 0.033562829628
0.576904000000 -0.028022247959 0.028617086322 -0.183516763333 0.966469032941 -0.185716307117 0.966866420856 -0.033326003809 0.035830045505
0.582903000000 -0.025294270177 0.030487744034 -0.202443131901 0.967916546220 -0.204189485772 0.966289535588 -0.030641067133 0.038060065260
0.588902000000 -0.021951385587 0.032305695181 -0.218716366153 0.959965883231 -0.221660056033 0.960168684179 -0.027367611151 0.040039581069
0.594901000000 -0.018694199335 0.033842925940 -0.238154070217 0.960612960499 -0.239783470696 0.958960477372 -0.024038620707 0.041743770007
0.600900000000 -0.014809031634 0.035475440209 -0.254271148071 0.951376023627 -0.256776564595 0.952075614070 -0.020082278332 0.043213204957
0.606899000000 -0.011231674476 0.036651264053 -0.273030142526 0.952482371528 -0.275407439476 0.949916290462 -0.016315680315 0.044482115003
0.612898000000 -0.006992422047 0.037637426375 -0.289687706651 0.943263520512 -0.291488679848 0.942924271485 -0.012236015419 0.045503929073
0.618897000000 -0.002887281763 0.038325473117 -0.308609177685 0.942611476187 -0.309172172657 0.939963788157 -0.008100091341 0.046452352468
0.624896000000 0.001683363397 0.038848980136 -0.323670015060 0.932469670524 -0.326058048583 0.932650434428 -0.003559950740 0.046983585423
0.630895000000 0.006066658613 0.039081774543 -0.342065168152 0.931802949860 -0.343167249134 0.929226887971 0.000764096666 0.047097583883
0.636894000000 0.011079382569 0.039145388894 -0.357680324584 0.921089783308 -0.358834054927 0.920690942528 0.005505778765 0.046924249965
0.642893000000 0.015492453794 0.038723175147 -0.375139165521 0.919608333564 -0.375657496078 0.916576691631 0.010156173243 0.046811651448
0.648892000000 0.020509420459 0.038253634880 -0.389704670798 0.908628113375 -0.390642013519 0.907820326125 0.015130782712 0.046302206248
0.654891000000 0.025068540076 0.037555701100 -0.406893167002 0.906143358460 -0.407857737976 0.903209324529 0.019870622431 0.045541665737
0.660890000000 0.030304202023 0.036594627517 -0.420405514054 0.894875246500 -0.421833619239 0.894090676276 0.024949507391 0.044546206146
0.666889000000 0.035122934245 0.035245405076 -0.438445061376 0.890878642771 -0.438971818592 0.888235975173 0.029936842618 0.042976936368
0.672888000000 0.040474515340 0.033867319173 -0.451887357824 0.877951157661 -0.453091567183 0.877633369883 0.035099961166 0.041125503372
0.678887000000 0.045226808500 0.031894658669 -0.470525468629 0.873399831748 -0.470476235673 0.870675631096 0.039928389241 0.039200524509
0.684886000000 0.050575662396 0.029777913171 -0.482153307151 0.860418012645 -0.483259016407 0.859789593152 0.045034009558 0.036881179856
0.690885000000 0.055581881350 0.027718187189 -0.491813212492 0.860706695359 -0.497523057538 0.853994594512 0.050277806568 0.033820529479
0.696884000000 0.060246622132 0.024510357913 -0.512048467613 0.840622867415 -0.514020715152 0.840136276446 0.054815964927 0.031354703534
0.702883000000 0.064910484364 0.021843887841 -0.528636805456 0.834734597310 -0.530413558692 0.831608442565 0.059594618965 0.027963690251
0.708882000000 0.069786908668 0.018493894333 -0.540315926190 0.819918132110 -0.542440684939 0.818663280474 0.064391543043 0.024759022863
0.714881000000 0.074115516668 0.014938785034 -0.556717769557 0.813039463685 -0.557663146966 0.810058615673 0.068664919325 0.020646563807
0.720880000000 0.078637815444 0.011356152547 -0.569424195005 0.797023304154 -0.571087450460 0.796385866169 0.073068080079 0.016894180189
0.726879000000 0.082322661191 0.007296727480 -0.588325923896 0.788077416353 -0.587249758645 0.786921620286 0.077056687987 0.012648418587
0.732878000000 0.086466894978 0.003332621809 -0.598019628667 0.773254279206 -0.599976881096 0.772683038027 0.080983063491 0.007918213631
0.738877000000 0.090095579750 -0.000957667261 -0.615093450405 0.765027819312 -0.615996131695 0.762301651130 0.084568935439 0.003019956390
0.744876000000 0.093576592911 -0.005152204489 -0.627036502886 0.748091110184 -0.628636004933 0.747462621540 0.087951009944 -0.001555382917
0.750875000000 0.097154569789 -0.009746097286 -0.642649536426 0.739969214944 -0.643039335360 0.737640474721 0.091305349388 -0.006621207334
0.756874000000 0.099775074661 -0.014364677831 -0.654068665871 0.722197952812 -0.656271080499 0.722063133861 0.093669349805 -0.011564353210
0.762873000000 0.102344577500 -0.019147341129 -0.671697399883 0.712641400637 -0.672029676870 0.710943843327 0.096156921337 -0.016944282643
0.768872000000 0.104778377159 -0.023804378785 -0.682380891524 0.695407170910 -0.684495736555 0.695623493989 0.098362532232 -0.022066540289
0.774871000000 0.106937882803 -0.028792104283 -0.699592612850 0.685871556832 -0.699327222471 0.684391418330 0.100245253186 -0.027626153154
0.780870000000 0.108951506402 -0.033402844855 -0.710125933884 0.668795618102 -0.711592607153 0.668739569631 0.101868668635 -0.032727205417
0.786869000000 0.110602671867 -0.038582467220 -0.726765788017 0.658455129117 -0.726533956520 0.657009885366 0.103213339742 -0.038336261116
0.792868000000 0.111998706169 -0.043376018130 -0.737090769136 0.641340194236 -0.737747331650 0.641892350384 0.104376633684 -0.043540489898
0.798867000000 0.113261243737 -0.048362249869 -0.754037286308 0.630402355767 -0.752949934805 0.629657546976 0.105459311191 -0.048995159722
0.804866000000 0.114106033326 -0.053018446134 -0.763782793469 0.613894750791 -0.763522945140 0.614288760127 0.106103016468 -0.054223032904
0.810865000000 0.114777170699 -0.057966353857 -0.780023001740 0.602762580667 -0.777827258187 0.601715380404 0.106682751267 -0.059833785178
0.816864000000 0.115207842697 -0.062473826886 -0.788600454486 0.585836490862 -0.788498663565 0.586218859079 0.106734004545 -0.065128200363
0.822863000000 0.115426342193 -0.067072071899 -0.807642196890 0.571328956162 -0.802794289027 0.573546415596 0.106904445782 -0.070054787046
0.828862000000 0.115494438128 -0.071797353958 -0.814540268968 0.558485136546 -0.811789058925 0.558334047178 0.105957488462 -0.075585966483
0.834861000000 0.115201784195 -0.076552999847 -0.829389725598 0.547055197851 -0.824301500090 0.545868660137 0.105096250445 -0.080909628757
0.840860000000 0.114593569762 -0.080867126934 -0.836280406147 0.530933509013 -0.834433283851 0.530233514770 0.103745134164 -0.085624136803
0.846859000000 0.113853097390 -0.085445711684 -0.851005514789 0.520124542274 -0.846746595860 0.517185986792 0.102293988020 -0.090590728628
0.852858000000 0.112570009867 -0.089543952493 -0.856545156802 0.504157990687 -0.853835269839 0.501389555728 0.100110840961 -0.094948632708
0.858857000000 0.111292416892 -0.093657625415 -0.870585952060 0.491728834162 -0.866163802798 0.488360988991 0.098333940011 -0.099652011365
0.864856000000 0.109589330192 -0.097340273928 -0.875303797178 0.475336992025 -0.872618980479 0.472583019672 0.095825684641 -0.103549401614
