# GHZ S RI R 50.000000000000
0.001000000000 0.000534192555 -0.000787572466 1.007177419704 0.003343353912 1.000049120135 -0.001900030652 0.006011685596 0.000003759129
0.006999000000 0.051585768160 0.015413381742 1.047934011655 0.010127180421 1.020001315039 -0.001824424204 0.050326271561 0.014075602625
0.012998000000 0.001609892245 0.010250332411 0.998127469110 0.039948337995 0.997740378014 0.039895834840 0.001786441091 0.010145897089
0.018997000000 0.004398042818 0.013486271039 1.005693666956 0.054971232732 1.003405486985 0.058906795644 0.004484228376 0.013518333365
0.024996000000 0.003804413574 0.020016243366 0.995819945660 0.075700481392 0.995140380937 0.075529315015 0.003924322983 0.019998983325
0.030995000000 0.005758503197 0.024558719726 0.998023024292 0.095575088350 0.996669929375 0.097639364593 0.005991152906 0.024474807703
0.036994000000 0.007423247770 0.029153658595 0.992304348848 0.111875425063 0.991668302333 0.111394051038 0.007849936003 0.028860874949
0.042993000000 0.009655490969 0.032895875716 0.996408309457 0.125610225265 0.993361125348 0.125264106265 0.010126232433 0.032720972970
0.048992000000 0.011469400119 0.037284213713 0.987619860426 0.146725015793 0.986791397475 0.146518739650 0.012167187116 0.036933776881
0.054991000000 0.013984681505 0.041359191199 0.988946364759 0.166296805293 0.985858697364 0.165750351651 0.014662559771 0.041024491613
0.060990000000 0.016049172894 0.044638707790 0.980936625193 0.180415009193 0.980208310682 0.180944184077 0.016863823956 0.044204722003
0.066989000000 0.019070582950 0.048111510638 0.982470440417 0.198130953744 0.979281873303 0.198433418540 0.019915283935 0.047809992776
0.072988000000 0.021650250742 0.050963737271 0.973326489979 0.214062135808 0.972642346726 0.214633295197 0.022583132595 0.050587878682
0.078987000000 0.024677642718 0.053958902818 0.973066911856 0.231758595961 0.970093123384 0.231979372720 0.025676255234 0.053593053110
0.084986000000 0.027459537822 0.056549281000 0.963412601724 0.247513916427 0.962593450392 0.248378052495 0.028669660052 0.055969071902
0.090985000000 0.030804863448 0.059072167870 0.962870926750 0.265337567541 0.959634791900 0.266069659336 0.032080063341 0.058529402894
0.096984000000 0.033946072131 0.060946415565 0.952470643457 0.280505108332 0.951477295842 0.281957434550 0.035364894086 0.060278924383
0.102983000000 0.037381462755 0.062983911124 0.950687783489 0.297613676012 0.947594600043 0.298956446424 0.038980173611 0.062239855429
0.108982000000 0.040575162615 0.064471513503 0.939604846903 0.313592602196 0.938525564128 0.314750121516 0.042144077815 0.063495686177
0.114981000000 0.044160118194 0.065793256728 0.936921415477 0.332025151000 0.933888536615 0.332622436815 0.045953836336 0.064936645898
0.120980000000 0.047428594293 0.066476478235 0.925014400944 0.346714361138 0.924098081588 0.348035526510 0.049274320090 0.065488206589
0.126979000000 0.051025252685 0.067303293284 0.921974298565 0.364747284086 0.918543236003 0.365804216433 0.053043310375 0.066163234081
0.132978000000 0.054313703984 0.067372954628 0.909399013769 0.380160050814 0.908801693129 0.380983376245 0.056239116813 0.066210152562
0.138977000000 0.057737976015 0.067571516010 0.905212429932 0.398683604531 0.902639109879 0.398835498519 0.059758794515 0.066436502039
0.144976000000 0.060777409792 0.067099298595 0.891976664983 0.413650349444 0.891347718281 0.414546897195 0.062780273281 0.065703932197
0.150975000000 0.064036590533 0.066651820895 0.887597253053 0.432398001941 0.885029334801 0.432196685407 0.066144847718 0.065359034303
0.156974000000 0.066842853330 0.065538473371 0.874154937133 0.447153693302 0.874048071079 0.447900313001 0.068922993958 0.064092397194
0.162973000000 0.069693028628 0.064583071924 0.869428324554 0.465927340667 0.867008735311 0.466072057821 0.071987718659 0.062944260944
0.168972000000 0.072286515299 0.062869846065 0.855302523797 0.480944255230 0.855011159183 0.481733632259 0.074317613142 0.061251859844
0.174971000000 0.074856382927 0.061326685660 0.849810475368 0.499482090831 0.847903840282 0.499074736434 0.077108081635 0.059574313975
0.180970000000 0.077027636998 0.059013114382 0.836088396276 0.513960637482 0.835904507159 0.514740448888 0.079061157661 0.056994949579
0.186969000000 0.079276733142 0.056701051969 0.830112926582 0.532957015265 0.828129366556 0.532322069890 0.081419794272 0.054723802491
0.192968000000 0.080934841073 0.053905064988 0.816331240480 0.546849891412 0.815983537681 0.547408598813 0.082959079213 0.051947104887
0.198967000000 0.082683262843 0.051285787554 0.810085682300 0.565820609114 0.808224956691 0.564573482075 0.084891678970 0.049317306646
0.204966000000 0.083841200475 0.048399213890 0.796499768939 0.578765360027 0.796165327455 0.579336113763 0.086013077708 0.046101789638
0.210965000000 0.084922448917 0.045461378054 0.789754987284 0.597509360682 0.787883554494 0.596441209844 0.087133996265 0.043135613944
0.216964000000 0.085509176268 0.042168365061 0.775690146686 0.610115074358 0.775439467081 0.610455042209 0.087565800076 0.039818907747
0.222963000000 0.086108482556 0.039080903675 0.768800591434 0.628001460194 0.766891500737 0.626737094259 0.088259312176 0.036705630299
0.228962000000 0.086287229945 0.035753469308 0.754715015254 0.639911511206 0.754330160614 0.640046799668 0.088111842126 0.033173738519
0.234961000000 0.086375427325 0.032503545105 0.747161453216 0.657982381062 0.745217461366 0.656314298580 0.088277085402 0.029889670430
0.240960000000 0.086065147107 0.029062376322 0.732865077099 0.668522979094 0.732343807312 0.668416483799 0.087754883672 0.026211474297
0.246959000000 0.085647594147 0.025745459362 0.725682417847 0.684900209115 0.722770647414 0.683735327341 0.087343816576 0.022667487074
0.252958000000 0.084759245825 0.022108140097 0.710087232216 0.695708837988 0.709330455021 0.695516319119 0.086287471836 0.019085819922
0.258957000000 0.083911476190 0.018798886852 0.702353429657 0.711522456054 0.699790170952 0.710123443133 0.085315392489 0.015604659840
0.264956000000 0.082629412815 0.015288820893 0.687168710210 0.721091416122 0.686311291450 0.720943427630 0.083780518027 0.012076319264
0.270955000000 0.081100226316 0.011813223784 0.677289121995 0.737351748763 0.675886125288 0.734390395777 0.082355277057 0.008692842340
0.276954000000 0.079464151671 0.008255619886 0.662622729560 0.745052884766 0.661518429075 0.744781159822 0.080361055106 0.005018059956
0.282953000000 0.077335367075 0.004975663045 0.652253831225 0.760647521497 0.649830840513 0.758296694819 0.078324262006 0.001589079989
0.288952000000 0.075213020830 0.001420938908 0.636735585327 0.767482788110 0.635926476908 0.766951036127 0.075795693553 -0.002023732523
0.294951000000 0.072860347227 -0.001781783476 0.626864958911 0.781600460328 0.623882746812 0.779779645545 0.073223226715 -0.005319783282
0.300950000000 0.070156411997 -0.005189107775 0.610181692806 0.788388794247 0.608743119119 0.788159869193 0.070407911639 -0.008584021871
0.306949000000 0.067239656345 -0.008213142963 0.598172565178 0.802718426661 0.595969550063 0.799995644496 0.067382649468 -0.011617366664
0.312948000000 0.064124351234 -0.011385436966 0.581456304345 0.808123340247 0.579767497868 0.807968294663 0.063931885764 -0.014697953395
0.318947000000 0.060805518055 -0.014154641166 0.568743517783 0.822117443217 0.566869012344 0.819589929752 0.060366295518 -0.017458159777
0.324946000000 0.057615445466 -0.017005721155 0.551799542949 0.827476812609 0.550527849978 0.826915059388 0.056695909277 -0.020206425381
0.330945000000 0.053592843168 -0.019500614154 0.538496544488 0.840201205864 0.536266159860 0.838208777688 0.052681540703 -0.022700460836
0.336944000000 0.049851297834 -0.021850038476 0.520856278436 0.845108265466 0.519353590137 0.844999655404 0.048590064357 -0.025166072903
0.342943000000 0.045655944235 -0.023946043644 0.507559284843 0.857213780677 0.504937700168 0.855449704482 0.044290669816 -0.027196135209
0.348942000000 0.041702081576 -0.025960176156 0.488951230772 0.861878685221 0.487925371741 0.861668720087 0.039889853692 -0.029077329079
0.354941000000 0.037385785286 -0.027671838722 0.475380764167 0.873701048394 0.472859031588 0.871676569839 0.035307653965 -0.030708813252
0.360940000000 0.033158686996 -0.029299859258 0.456029899745 0.877848896549 0.455076870522 0.877555809263 0.030828835332 -0.032147818327
0.366939000000 0.028689388472 -0.030250478517 0.441179328082 0.890163060160 0.439516257387 0.887796552382 0.026143132452 -0.032906712792
0.372938000000 0.024460299609 -0.031312918727 0.422334854772 0.893019995552 0.421935963990 0.893171508458 0.021464581122 -0.033741020332
0.378937000000 0.019938805055 -0.031783522164 0.407477834727 0.905284384229 0.406621226939 0.903124941019 0.016701319528 -0.034079490846
0.384936000000 0.015717825600 -0.032271614611 0.389352663661 0.908390564631 0.388555954292 0.908449144489 0.012093725796 -0.034327215414
0.390935000000 0.011287491726 -0.032253550292 0.373825638543 0.919798802865 0.372451646222 0.917568991907 0.007307772794 -0.034342304085
0.396934000000 0.007145977812 -0.032257288833 0.354900211949 0.922147334020 0.354438939085 0.921910319466 0.002720182199 -0.034039425843
0.402933000000 0.002804943329 -0.031750030245 0.339376197489 0.933322327553 0.338395392348 0.930833621159 -0.001823920274 -0.033330785378
0.408932000000 -0.001019809216 -0.031369741665 0.321258642653 0.935199188827 0.320053812526 0.934569839368 -0.006049777103 -0.032469498212
0.414931000000 -0.005235821949 -0.030423837979 0.305646763473 0.945575060785 0.303827570222 0.942819128741 -0.010486577921 -0.031238503448
0.420930000000 -0.008899927942 -0.029604661992 0.286756018532 0.946918153280 0.285841495816 0.946445228068 -0.014492176338 -0.029934650578
0.426929000000 -0.012671381923 -0.028063017308 0.270972555345 0.956742844125 0.269333930872 0.954148947576 -0.018673764759 -0.028314319290
0.432928000000 -0.016037602665 -0.026664299617 0.252644936244 0.956942532281 0.251814271864 0.956652247942 -0.022340440302 -0.026651082177
0.438927000000 -0.019550050420 -0.024852389047 0.235732149268 0.966530750769 0.235414523534 0.963319682878 -0.026241083502 -0.024492736807
0.444926000000 -0.022526136229 -0.023110580808 0.218777994893 0.966103718480 0.217145131918 0.965398871842 -0.029560735229 -0.022334244113
0.450925000000 -0.025552765962 -0.020999335601 0.202726307820 0.975079753365 0.201233718123 0.971893095735 -0.032939467727 -0.019934983078
0.456924000000 -0.028039545616 -0.018779242311 0.184303966845 0.973531730556 0.183220909016 0.972938490003 -0.035727993755 -0.017521469732
0.462923000000 -0.030805096361 -0.016273188460 0.168339698171 0.981220618051 0.166091334590 0.978138287941 -0.038522083302 -0.014594276337
0.468922000000 -0.032927298157 -0.013851003469 0.150514723905 0.979395852984 0.148427517398 0.978403858524 -0.040734760121 -0.011785437042
0.474921000000 -0.035084950237 -0.011115292308 0.133847893123 0.986315642899 0.131543381272 0.982692832713 -0.043139563053 -0.008541006611
0.480920000000 -0.036505940468 -0.008457458491 0.115829403495 0.983370382299 0.113946232208 0.982114002660 -0.044988910635 -0.005441464681
0.486919000000 -0.037740562009 -0.005523784811 0.094818336677 0.989738428743 0.095831131372 0.985952165303 -0.046863541722 -0.001943858731
0.492918000000 -0.038763011701 -0.002731030504 0.080530917094 0.985994876313 0.078546649349 0.984541240425 -0.048157560054 0.001575938107
0.498917000000 -0.039762927437 0.000392906982 0.063174651309 0.991599162972 0.061637285146 0.987840063398 -0.049424476365 0.005165236950
0.504916000000 -0.040028975038 0.003410124799 0.045739103723 0.986722707262 0.043347401338 0.985658782772 -0.049945685976 0.008632487380
0.510915000000 -0.040335507183 0.006679984972 0.027492307943 0.991371352120 0.024518424262 0.988198450133 -0.050329671430 0.012246544002
0.516914000000 -0.039907167068 0.009797973479 0.009753786430 0.986194131760 0.007197590345 0.985336697638 -0.050048243187 0.015576399947
0.522913000000 -0.039601608793 0.012867537325 -0.007412988432 0.990323168643 -0.009434357201 0.987617475145 -0.049842900345 0.019292301276
0.528912000000 -0.038483765975 0.015832762140 -0.026695142672 0.984547319547 -0.029073555847 0.984259026959 -0.048779051497 0.022592553861
0.534911000000 -0.037523160035 0.018783726296 -0.044616832145 0.987894471376 -0.047444315051 0.985389865893 -0.047974976388 0.026298782445
0.540910000000 -0.035775923592 0.021566564113 -0.062904555503 0.981732071965 -0.065572819491 0.981660096930 -0.046500284352 0.029640733443
0.546909000000 -0.034206535439 0.024451907918 -0.080871129245 0.984361228641 -0.084573152100 0.982808370172 -0.044893498821 0.033054922949
0.552908000000 -0.031808753946 0.027092202302 -0.099554886160 0.977751756605 -0.102555151172 0.978130729661 -0.042723135142 0.036091453449
0.558907000000 -0.029632138422 0.029553123401 -0.118891820149 0.980027726146 -0.120896078134 0.978716522581 -0.040605609459 0.039125918161
0.564906000000 -0.026769560697 0.031982951173 -0.136052171327 0.972756711594 -0.138955209053 0.973748454525 -0.037753743428 0.041806810742
0.570905000000 -0.023971640868 0.034172991785 -0.155678214236 0.974712453166 -0.157566377045 0.973244790190 -0.035006743867 0.044490453803
0.576904000000 -0.020542091440 0.036183039125 -0.172644800841 0.967301979119 -0.175411671267 0.968417759490 -0.031727848924 0.046913013811
0.582903000000 -0.017469002658 0.037941775626 -0.191451604180 0.969278802392 -0.193496948984 0.967647586462 -0.028622585989 0.049254230279
0.588902000000 -0.013735459022 0.039551242529 -0.208177962038 0.961119093475 -0.210971573131 0.962178195992 -0.024848103248 0.051173949252
0.594901000000 -0.010114529366 0.040890709720 -0.227444841635 0.962655700957 -0.229097416965 0.961043103162 -0.021099109352 0.052873564156
0.600900000000 -0.005870508989 0.042156113716 -0.243807229490 0.954549828699 -0.246490604898 0.955036879079 -0.016792424171 0.054315031887
0.606899000000 -0.001934306030 0.043141935094 -0.262251520356 0.954892358502 -0.264607883991 0.952631710737 -0.012520204533 0.055604824899
0.612898000000 0.002715119155 0.043955738355 -0.279017591644 0.945582825664 -0.280547321849 0.945835979943 -0.007921115416 0.056679659985
0.618897000000 0.007071270244 0.044256702160 -0.297398521150 0.945861682044 -0.298315216847 0.943510509876 -0.003421098524 0.057432250379
0.624896000000 0.012053648322 0.044590961995 -0.312933514596 0.936200941200 -0.314536936555 0.936114876932 0.001576880727 0.057857340344
0.630895000000 0.016663042949 0.044413501415 -0.330447128565 0.935762594256 -0.331947122110 0.933064819807 0.006324426044 0.058019051506
0.636894000000 0.021983784078 0.044118769673 -0.346038890979 0.925219946890 -0.347690045613 0.924629852534 0.011522402074 0.057659496709
0.642893000000 0.026805133870 0.043300419657 -0.364309395924 0.923752384928 -0.364201708103 0.920508596813 0.016612414094 0.057408293018
0.648892000000 0.032118779494 0.042505227724 -0.378626654486 0.913187777910 -0.378826930637 0.912194921637 0.021973208085 0.056694046807
0.654891000000 0.037002757483 0.041287617179 -0.395810401071 0.910989530435 -0.395885634129 0.907715080463 0.027202883774 0.055771254712
0.660890000000 0.042411257757 0.040066800949 -0.408964811356 0.899645280055 -0.409784227208 0.898707463029 0.032719492259 0.054535119598
0.666889000000 0.047446548611 0.038211970940 -0.426770299375 0.896228476618 -0.426816910446 0.893353169964 0.038103763316 0.052732793637
0.672888000000 0.053047308754 0.036236595811 -0.439876174662 0.883820148834 -0.440933826303 0.882732453930 0.043712003234 0.050703559371
0.678887000000 0.058072516129 0.033791860146 -0.458448613992 0.879375127170 -0.457901912277 0.876061210228 0.048927524113 0.048417765833
0.684886000000 0.063501492258 0.031211394423 -0.470084825928 0.866656961520 -0.470594455508 0.865307591352 0.054473489010 0.045714183372
0.690885000000 0.068734075397 0.028752219405 -0.479388566589 0.866801904521 -0.484904538786 0.859805369423 0.060241759349 0.042101090575
0.696884000000 0.073575959721 0.024998775315 -0.499619942933 0.846997463335 -0.501336999087 0.846131594187 0.065077356574 0.039386532992
0.702883000000 0.078232727941 0.021696460028 -0.516245678353 0.841169623683 -0.517824114915 0.837313089534 0.070086918577 0.035713087564
0.708882000000 0.083141055543 0.018036935823 -0.528068398946 0.826259019710 -0.529906657984 0.824554292343 0.075123060853 0.031965466984
0.714881000000 0.087686312559 0.013877101354 -0.544507182402 0.820137428961 -0.545560918884 0.816449082370 0.079892457887 0.027661309031
0.720880000000 0.092016719382 0.009654804537 -0.557161749117 0.803798423759 -0.558748809608 0.802641198637 0.084430667639 0.023189996017
0.726879000000 0.095856820439 0.004987406274 -0.575956794572 0.795001045924 -0.575173204545 0.793153634972 0.088792526451 0.018563925064
0.732878000000 0.099901109161 0.000475539553 -0.586112100356 0.780213787307 -0.588216130699 0.779392504426 0.092942475858 0.013378474186
0.738877000000 0.103456168752 -0.004445043099 -0.602970063866 0.772074101585 -0.604088172864 0.769223958309 0.096794890662 0.007942265586
0.744876000000 0.107009821286 -0.009085260604 -0.614644489664 0.755521706603 -0.616809980720 0.754605419253 0.100364582550 0.002783569879
0.750875000000 0.110341296194 -0.014189512096 -0.631013714706 0.747503542064 -0.632325997464 0.744762053657 0.103743752479 -0.002736201151
0.756874000000 0.112979150837 -0.019236224961 -0.642767916642 0.730106473088 -0.644958597316 0.729983981731 0.106409173661 -0.008104733610
0.762873000000 0.115463688536 -0.024720455020 -0.660057554486 0.720712613345 -0.661054994603 0.718853364224 0.108978243816 -0.014094585638
0.768872000000 0.117768364789 -0.029814752051 -0.671264167705 0.703581642045 -0.673397127714 0.703354777416 0.111316975550 -0.019730445796
0.774871000000 0.119734538501 -0.035441605770 -0.688320664817 0.693913826526 -0.688817133689 0.692606336795 0.113245522369 -0.025853327538
0.780870000000 0.121433914430 -0.040630241346 -0.698986586480 0.676774998313 -0.700950595687 0.677024363568 0.114850015950 -0.031591837851
0.786869000000 0.122886581122 -0.046211836700 -0.716107666998 0.666905126072 -0.716219975029 0.665738440585 0.116337966199 -0.037742464287
0.792868000000 0.124096961917 -0.051481271517 -0.727113884231 0.649808670987 -0.727838364889 0.650861423742 0.117448592145 -0.043437753063
0.798867000000 0.125034092825 -0.056902706393 -0.744240889572 0.639372160546 -0.742983093774 0.639303679334 0.118467923807 -0.049595080936
0.804866000000 0.125665243717 -0.062131056637 -0.754120109735 0.622721388760 -0.753897677326 0.623786398525 0.119162828755 -0.055304413087
0.810865000000 0.126172426388 -0.067575980464 -0.770567053008 0.612831669146 -0.768392968157 0.612174331952 0.119711476237 -0.061611644231
0.816864000000 0.126238433533 -0.072628790334 -0.779703089520 0.596064954338 -0.779007418502 0.597051432381 0.119681063184 -0.067435213937
0.822863000000 0.126228262146 -0.077527410009 -0.798963870732 0.581511481006 -0.793261934736 0.584113329877 0.119691472633 -0.072783477146
0.828862000000 0.125774002042 -0.082877328010 -0.804929645551 0.568679609694 -0.802162858870 0.568888005687 0.118561146587 -0.078937745823
0.834861000000 0.125330602179 -0.087931457837 -0.821397926111 0.558289510062 -0.816064805935 0.557383857878 0.117557979648 -0.084811235413
0.840860000000 0.124217336252 -0.092699176315 -0.827520168319 0.542197631339 -0.824951712804 0.541747687261 0.115877303751 -0.090147018115
0.846859000000 0.123169678122 -0.097568499662 -0.843115150205 0.531383777397 -0.838429400256 0.529624137308 0.114293626111 -0.095688460920
0.852858000000 0.121532117679 -0.102059891750 -0.849340135372 0.516119579134 -0.845835502298 0.514020066678 0.111980467054 -0.100518571302
0.858857000000 0.119843092893 -0.106672014622 -0.863488016302 0.504522803736 -0.857832305005 0.501282044277 0.109888090985 -0.105799560177
0.864856000000 0.117761451304 -0.110673656672 -0.868799158300 0.487759611553 -0.865292582171 0.486117806566 0.107163940016 -0.110221772615
